2026-04-27 19:04:04 [TOPO INFO] lwnoc_topo.topo_core: Building UHDL for wrapper 'soc_sts_noc' (15 subnodes, 178 interfaces)
2026-04-27 19:04:04 [TOPO INFO] lwnoc_topo.topo_core: Building UHDL for wrapper 'aon_ss_iniu' (2 subnodes, 20 interfaces)
2026-04-27 19:04:04 [TOPO INFO] lwnoc_topo.topo_core:   Instantiated subnode 'iniu_sys_side' in wrapper 'aon_ss_iniu'
2026-04-27 19:04:04 [TOPO INFO] lwnoc_topo.topo_core:   Instantiated subnode 'iniu_top_side' in wrapper 'aon_ss_iniu'
2026-04-27 19:04:04 [TOPO INFO] lwnoc_topo.topo_core:   Created wrapper IO 'clk_src' for interface 'clk_src'
2026-04-27 19:04:04 [TOPO INFO] lwnoc_topo.topo_core:   Created wrapper IO 'rstn_src' for interface 'rstn_src'
2026-04-27 19:04:04 [TOPO INFO] lwnoc_topo.topo_core:   Created wrapper IO 'clk_dst' for interface 'clk_dst'
2026-04-27 19:04:04 [TOPO INFO] lwnoc_topo.topo_core:   Created wrapper IO 'rstn_dst' for interface 'rstn_dst'
2026-04-27 19:04:04 [TOPO INFO] lwnoc_topo.topo_core:   Created wrapper IO 'node_id_node_id' for interface 'node_id'
2026-04-27 19:04:04 [TOPO INFO] lwnoc_topo.topo_core:   Created wrapper IO 'axi_sts_iniu_s_araddr' for interface 'axi'
2026-04-27 19:04:04 [TOPO INFO] lwnoc_topo.topo_core:   Created wrapper IO 'axi_sts_iniu_s_arburst' for interface 'axi'
2026-04-27 19:04:04 [TOPO INFO] lwnoc_topo.topo_core:   Created wrapper IO 'axi_sts_iniu_s_arcache' for interface 'axi'
2026-04-27 19:04:04 [TOPO INFO] lwnoc_topo.topo_core:   Created wrapper IO 'axi_sts_iniu_s_arid' for interface 'axi'
2026-04-27 19:04:04 [TOPO INFO] lwnoc_topo.topo_core:   Created wrapper IO 'axi_sts_iniu_s_arlen' for interface 'axi'
2026-04-27 19:04:04 [TOPO INFO] lwnoc_topo.topo_core:   Created wrapper IO 'axi_sts_iniu_s_arlock' for interface 'axi'
2026-04-27 19:04:04 [TOPO INFO] lwnoc_topo.topo_core:   Created wrapper IO 'axi_sts_iniu_s_arprot' for interface 'axi'
2026-04-27 19:04:04 [TOPO INFO] lwnoc_topo.topo_core:   Created wrapper IO 'axi_sts_iniu_s_arqos' for interface 'axi'
2026-04-27 19:04:04 [TOPO INFO] lwnoc_topo.topo_core:   Created wrapper IO 'axi_sts_iniu_s_arready' for interface 'axi'
2026-04-27 19:04:04 [TOPO INFO] lwnoc_topo.topo_core:   Created wrapper IO 'axi_sts_iniu_s_arsize' for interface 'axi'
2026-04-27 19:04:04 [TOPO INFO] lwnoc_topo.topo_core:   Created wrapper IO 'axi_sts_iniu_s_aruser' for interface 'axi'
2026-04-27 19:04:04 [TOPO INFO] lwnoc_topo.topo_core:   Created wrapper IO 'axi_sts_iniu_s_arvalid' for interface 'axi'
2026-04-27 19:04:04 [TOPO INFO] lwnoc_topo.topo_core:   Created wrapper IO 'axi_sts_iniu_s_awaddr' for interface 'axi'
2026-04-27 19:04:04 [TOPO INFO] lwnoc_topo.topo_core:   Created wrapper IO 'axi_sts_iniu_s_awburst' for interface 'axi'
2026-04-27 19:04:04 [TOPO INFO] lwnoc_topo.topo_core:   Created wrapper IO 'axi_sts_iniu_s_awcache' for interface 'axi'
2026-04-27 19:04:04 [TOPO INFO] lwnoc_topo.topo_core:   Created wrapper IO 'axi_sts_iniu_s_awid' for interface 'axi'
2026-04-27 19:04:04 [TOPO INFO] lwnoc_topo.topo_core:   Created wrapper IO 'axi_sts_iniu_s_awlen' for interface 'axi'
2026-04-27 19:04:04 [TOPO INFO] lwnoc_topo.topo_core:   Created wrapper IO 'axi_sts_iniu_s_awlock' for interface 'axi'
2026-04-27 19:04:04 [TOPO INFO] lwnoc_topo.topo_core:   Created wrapper IO 'axi_sts_iniu_s_awprot' for interface 'axi'
2026-04-27 19:04:04 [TOPO INFO] lwnoc_topo.topo_core:   Created wrapper IO 'axi_sts_iniu_s_awqos' for interface 'axi'
2026-04-27 19:04:04 [TOPO INFO] lwnoc_topo.topo_core:   Created wrapper IO 'axi_sts_iniu_s_awready' for interface 'axi'
2026-04-27 19:04:04 [TOPO INFO] lwnoc_topo.topo_core:   Created wrapper IO 'axi_sts_iniu_s_awsize' for interface 'axi'
2026-04-27 19:04:04 [TOPO INFO] lwnoc_topo.topo_core:   Created wrapper IO 'axi_sts_iniu_s_awuser' for interface 'axi'
2026-04-27 19:04:04 [TOPO INFO] lwnoc_topo.topo_core:   Created wrapper IO 'axi_sts_iniu_s_awvalid' for interface 'axi'
2026-04-27 19:04:04 [TOPO INFO] lwnoc_topo.topo_core:   Created wrapper IO 'axi_sts_iniu_s_bid' for interface 'axi'
2026-04-27 19:04:04 [TOPO INFO] lwnoc_topo.topo_core:   Created wrapper IO 'axi_sts_iniu_s_bready' for interface 'axi'
2026-04-27 19:04:04 [TOPO INFO] lwnoc_topo.topo_core:   Created wrapper IO 'axi_sts_iniu_s_bresp' for interface 'axi'
2026-04-27 19:04:04 [TOPO INFO] lwnoc_topo.topo_core:   Created wrapper IO 'axi_sts_iniu_s_bvalid' for interface 'axi'
2026-04-27 19:04:04 [TOPO INFO] lwnoc_topo.topo_core:   Created wrapper IO 'axi_sts_iniu_s_rdata' for interface 'axi'
2026-04-27 19:04:04 [TOPO INFO] lwnoc_topo.topo_core:   Created wrapper IO 'axi_sts_iniu_s_rid' for interface 'axi'
2026-04-27 19:04:04 [TOPO INFO] lwnoc_topo.topo_core:   Created wrapper IO 'axi_sts_iniu_s_rlast' for interface 'axi'
2026-04-27 19:04:04 [TOPO INFO] lwnoc_topo.topo_core:   Created wrapper IO 'axi_sts_iniu_s_rready' for interface 'axi'
2026-04-27 19:04:04 [TOPO INFO] lwnoc_topo.topo_core:   Created wrapper IO 'axi_sts_iniu_s_rresp' for interface 'axi'
2026-04-27 19:04:04 [TOPO INFO] lwnoc_topo.topo_core:   Created wrapper IO 'axi_sts_iniu_s_rvalid' for interface 'axi'
2026-04-27 19:04:04 [TOPO INFO] lwnoc_topo.topo_core:   Created wrapper IO 'axi_sts_iniu_s_wdata' for interface 'axi'
2026-04-27 19:04:04 [TOPO INFO] lwnoc_topo.topo_core:   Created wrapper IO 'axi_sts_iniu_s_wlast' for interface 'axi'
2026-04-27 19:04:04 [TOPO INFO] lwnoc_topo.topo_core:   Created wrapper IO 'axi_sts_iniu_s_wready' for interface 'axi'
2026-04-27 19:04:04 [TOPO INFO] lwnoc_topo.topo_core:   Created wrapper IO 'axi_sts_iniu_s_wstrb' for interface 'axi'
2026-04-27 19:04:04 [TOPO INFO] lwnoc_topo.topo_core:   Created wrapper IO 'axi_sts_iniu_s_wvalid' for interface 'axi'
2026-04-27 19:04:04 [TOPO INFO] lwnoc_topo.topo_core:   Created wrapper IO 'req_out_req_pld' for interface 'req'
2026-04-27 19:04:04 [TOPO INFO] lwnoc_topo.topo_core:   Created wrapper IO 'req_out_req_rdy' for interface 'req'
2026-04-27 19:04:04 [TOPO INFO] lwnoc_topo.topo_core:   Created wrapper IO 'req_out_req_vld' for interface 'req'
2026-04-27 19:04:04 [TOPO INFO] lwnoc_topo.topo_core:   Created wrapper IO 'rsp_in_rsp_pld' for interface 'rsp'
2026-04-27 19:04:04 [TOPO INFO] lwnoc_topo.topo_core:   Created wrapper IO 'rsp_in_rsp_rdy' for interface 'rsp'
2026-04-27 19:04:04 [TOPO INFO] lwnoc_topo.topo_core:   Created wrapper IO 'rsp_in_rsp_vld' for interface 'rsp'
2026-04-27 19:04:04 [TOPO INFO] lwnoc_topo.topo_core:   Created wrapper IO 'cti_event_noc_cti_event_in' for interface 'cti_event'
2026-04-27 19:04:04 [TOPO INFO] lwnoc_topo.topo_core:   Created wrapper IO 'cti_event_noc_cti_event_out' for interface 'cti_event'
2026-04-27 19:04:04 [TOPO INFO] lwnoc_topo.topo_core:   Created wrapper IO 'cti_event_sys_cti_event_in' for interface 'cti_event'
2026-04-27 19:04:04 [TOPO INFO] lwnoc_topo.topo_core:   Created wrapper IO 'cti_event_sys_cti_event_out' for interface 'cti_event'
2026-04-27 19:04:04 [TOPO INFO] lwnoc_topo.topo_core:   Created wrapper IO 'cti_channel_noc_cti_channel_in' for interface 'cti_channel'
2026-04-27 19:04:04 [TOPO INFO] lwnoc_topo.topo_core:   Created wrapper IO 'cti_channel_noc_cti_channel_out' for interface 'cti_channel'
2026-04-27 19:04:04 [TOPO INFO] lwnoc_topo.topo_core:   Created wrapper IO 'cti_channel_sys_cti_channel_in' for interface 'cti_channel'
2026-04-27 19:04:04 [TOPO INFO] lwnoc_topo.topo_core:   Created wrapper IO 'cti_channel_sys_cti_channel_out' for interface 'cti_channel'
2026-04-27 19:04:04 [TOPO INFO] lwnoc_topo.topo_core:   Created wrapper IO 'dbg_timestamp_dbg_timestamp_in' for interface 'dbg_timestamp'
2026-04-27 19:04:04 [TOPO INFO] lwnoc_topo.topo_core:   Created wrapper IO 'dbg_timestamp_dbg_timestamp_out' for interface 'dbg_timestamp'
2026-04-27 19:04:04 [TOPO INFO] lwnoc_topo.topo_core:   Created wrapper IO 'dbg_data_dbg_data_in' for interface 'dbg_data'
2026-04-27 19:04:04 [TOPO INFO] lwnoc_topo.topo_core:   Created wrapper IO 'dbg_data_dbg_data_out' for interface 'dbg_data'
2026-04-27 19:04:04 [TOPO INFO] lwnoc_topo.topo_core:   Created wrapper IO 'aon_ss_iniu_sys_side_node_id_porting_node_id' for interface 'aon_ss_iniu_sys_side.node_id_porting'
2026-04-27 19:04:04 [TOPO INFO] lwnoc_topo.topo_core:   Created wrapper IO 'aon_ss_iniu_sys_side_axi_porting_s_araddr' for interface 'aon_ss_iniu_sys_side.axi_porting'
2026-04-27 19:04:04 [TOPO INFO] lwnoc_topo.topo_core:   Created wrapper IO 'aon_ss_iniu_sys_side_axi_porting_s_arburst' for interface 'aon_ss_iniu_sys_side.axi_porting'
2026-04-27 19:04:04 [TOPO INFO] lwnoc_topo.topo_core:   Created wrapper IO 'aon_ss_iniu_sys_side_axi_porting_s_arcache' for interface 'aon_ss_iniu_sys_side.axi_porting'
2026-04-27 19:04:04 [TOPO INFO] lwnoc_topo.topo_core:   Created wrapper IO 'aon_ss_iniu_sys_side_axi_porting_s_arid' for interface 'aon_ss_iniu_sys_side.axi_porting'
2026-04-27 19:04:04 [TOPO INFO] lwnoc_topo.topo_core:   Created wrapper IO 'aon_ss_iniu_sys_side_axi_porting_s_arlen' for interface 'aon_ss_iniu_sys_side.axi_porting'
2026-04-27 19:04:04 [TOPO INFO] lwnoc_topo.topo_core:   Created wrapper IO 'aon_ss_iniu_sys_side_axi_porting_s_arlock' for interface 'aon_ss_iniu_sys_side.axi_porting'
2026-04-27 19:04:04 [TOPO INFO] lwnoc_topo.topo_core:   Created wrapper IO 'aon_ss_iniu_sys_side_axi_porting_s_arprot' for interface 'aon_ss_iniu_sys_side.axi_porting'
2026-04-27 19:04:04 [TOPO INFO] lwnoc_topo.topo_core:   Created wrapper IO 'aon_ss_iniu_sys_side_axi_porting_s_arqos' for interface 'aon_ss_iniu_sys_side.axi_porting'
2026-04-27 19:04:04 [TOPO INFO] lwnoc_topo.topo_core:   Created wrapper IO 'aon_ss_iniu_sys_side_axi_porting_s_arready' for interface 'aon_ss_iniu_sys_side.axi_porting'
2026-04-27 19:04:04 [TOPO INFO] lwnoc_topo.topo_core:   Created wrapper IO 'aon_ss_iniu_sys_side_axi_porting_s_arsize' for interface 'aon_ss_iniu_sys_side.axi_porting'
2026-04-27 19:04:04 [TOPO INFO] lwnoc_topo.topo_core:   Created wrapper IO 'aon_ss_iniu_sys_side_axi_porting_s_aruser' for interface 'aon_ss_iniu_sys_side.axi_porting'
2026-04-27 19:04:04 [TOPO INFO] lwnoc_topo.topo_core:   Created wrapper IO 'aon_ss_iniu_sys_side_axi_porting_s_arvalid' for interface 'aon_ss_iniu_sys_side.axi_porting'
2026-04-27 19:04:04 [TOPO INFO] lwnoc_topo.topo_core:   Created wrapper IO 'aon_ss_iniu_sys_side_axi_porting_s_awaddr' for interface 'aon_ss_iniu_sys_side.axi_porting'
2026-04-27 19:04:04 [TOPO INFO] lwnoc_topo.topo_core:   Created wrapper IO 'aon_ss_iniu_sys_side_axi_porting_s_awburst' for interface 'aon_ss_iniu_sys_side.axi_porting'
2026-04-27 19:04:04 [TOPO INFO] lwnoc_topo.topo_core:   Created wrapper IO 'aon_ss_iniu_sys_side_axi_porting_s_awcache' for interface 'aon_ss_iniu_sys_side.axi_porting'
2026-04-27 19:04:04 [TOPO INFO] lwnoc_topo.topo_core:   Created wrapper IO 'aon_ss_iniu_sys_side_axi_porting_s_awid' for interface 'aon_ss_iniu_sys_side.axi_porting'
2026-04-27 19:04:04 [TOPO INFO] lwnoc_topo.topo_core:   Created wrapper IO 'aon_ss_iniu_sys_side_axi_porting_s_awlen' for interface 'aon_ss_iniu_sys_side.axi_porting'
2026-04-27 19:04:04 [TOPO INFO] lwnoc_topo.topo_core:   Created wrapper IO 'aon_ss_iniu_sys_side_axi_porting_s_awlock' for interface 'aon_ss_iniu_sys_side.axi_porting'
2026-04-27 19:04:04 [TOPO INFO] lwnoc_topo.topo_core:   Created wrapper IO 'aon_ss_iniu_sys_side_axi_porting_s_awprot' for interface 'aon_ss_iniu_sys_side.axi_porting'
2026-04-27 19:04:04 [TOPO INFO] lwnoc_topo.topo_core:   Created wrapper IO 'aon_ss_iniu_sys_side_axi_porting_s_awqos' for interface 'aon_ss_iniu_sys_side.axi_porting'
2026-04-27 19:04:04 [TOPO INFO] lwnoc_topo.topo_core:   Created wrapper IO 'aon_ss_iniu_sys_side_axi_porting_s_awready' for interface 'aon_ss_iniu_sys_side.axi_porting'
2026-04-27 19:04:04 [TOPO INFO] lwnoc_topo.topo_core:   Created wrapper IO 'aon_ss_iniu_sys_side_axi_porting_s_awsize' for interface 'aon_ss_iniu_sys_side.axi_porting'
2026-04-27 19:04:04 [TOPO INFO] lwnoc_topo.topo_core:   Created wrapper IO 'aon_ss_iniu_sys_side_axi_porting_s_awuser' for interface 'aon_ss_iniu_sys_side.axi_porting'
2026-04-27 19:04:04 [TOPO INFO] lwnoc_topo.topo_core:   Created wrapper IO 'aon_ss_iniu_sys_side_axi_porting_s_awvalid' for interface 'aon_ss_iniu_sys_side.axi_porting'
2026-04-27 19:04:04 [TOPO INFO] lwnoc_topo.topo_core:   Created wrapper IO 'aon_ss_iniu_sys_side_axi_porting_s_bid' for interface 'aon_ss_iniu_sys_side.axi_porting'
2026-04-27 19:04:04 [TOPO INFO] lwnoc_topo.topo_core:   Created wrapper IO 'aon_ss_iniu_sys_side_axi_porting_s_bready' for interface 'aon_ss_iniu_sys_side.axi_porting'
2026-04-27 19:04:04 [TOPO INFO] lwnoc_topo.topo_core:   Created wrapper IO 'aon_ss_iniu_sys_side_axi_porting_s_bresp' for interface 'aon_ss_iniu_sys_side.axi_porting'
2026-04-27 19:04:04 [TOPO INFO] lwnoc_topo.topo_core:   Created wrapper IO 'aon_ss_iniu_sys_side_axi_porting_s_bvalid' for interface 'aon_ss_iniu_sys_side.axi_porting'
2026-04-27 19:04:04 [TOPO INFO] lwnoc_topo.topo_core:   Created wrapper IO 'aon_ss_iniu_sys_side_axi_porting_s_rdata' for interface 'aon_ss_iniu_sys_side.axi_porting'
2026-04-27 19:04:04 [TOPO INFO] lwnoc_topo.topo_core:   Created wrapper IO 'aon_ss_iniu_sys_side_axi_porting_s_rid' for interface 'aon_ss_iniu_sys_side.axi_porting'
2026-04-27 19:04:04 [TOPO INFO] lwnoc_topo.topo_core:   Created wrapper IO 'aon_ss_iniu_sys_side_axi_porting_s_rlast' for interface 'aon_ss_iniu_sys_side.axi_porting'
2026-04-27 19:04:04 [TOPO INFO] lwnoc_topo.topo_core:   Created wrapper IO 'aon_ss_iniu_sys_side_axi_porting_s_rready' for interface 'aon_ss_iniu_sys_side.axi_porting'
2026-04-27 19:04:04 [TOPO INFO] lwnoc_topo.topo_core:   Created wrapper IO 'aon_ss_iniu_sys_side_axi_porting_s_rresp' for interface 'aon_ss_iniu_sys_side.axi_porting'
2026-04-27 19:04:04 [TOPO INFO] lwnoc_topo.topo_core:   Created wrapper IO 'aon_ss_iniu_sys_side_axi_porting_s_rvalid' for interface 'aon_ss_iniu_sys_side.axi_porting'
2026-04-27 19:04:04 [TOPO INFO] lwnoc_topo.topo_core:   Created wrapper IO 'aon_ss_iniu_sys_side_axi_porting_s_wdata' for interface 'aon_ss_iniu_sys_side.axi_porting'
2026-04-27 19:04:04 [TOPO INFO] lwnoc_topo.topo_core:   Created wrapper IO 'aon_ss_iniu_sys_side_axi_porting_s_wlast' for interface 'aon_ss_iniu_sys_side.axi_porting'
2026-04-27 19:04:04 [TOPO INFO] lwnoc_topo.topo_core:   Created wrapper IO 'aon_ss_iniu_sys_side_axi_porting_s_wready' for interface 'aon_ss_iniu_sys_side.axi_porting'
2026-04-27 19:04:04 [TOPO INFO] lwnoc_topo.topo_core:   Created wrapper IO 'aon_ss_iniu_sys_side_axi_porting_s_wstrb' for interface 'aon_ss_iniu_sys_side.axi_porting'
2026-04-27 19:04:04 [TOPO INFO] lwnoc_topo.topo_core:   Created wrapper IO 'aon_ss_iniu_sys_side_axi_porting_s_wvalid' for interface 'aon_ss_iniu_sys_side.axi_porting'
2026-04-27 19:04:04 [TOPO INFO] lwnoc_topo.topo_core:   Created wrapper IO 'aon_ss_iniu_sys_side_req_async_porting_req_pld_sync' for interface 'aon_ss_iniu_sys_side.req_async_porting'
2026-04-27 19:04:04 [TOPO INFO] lwnoc_topo.topo_core:   Created wrapper IO 'aon_ss_iniu_sys_side_req_async_porting_req_rptr_async' for interface 'aon_ss_iniu_sys_side.req_async_porting'
2026-04-27 19:04:04 [TOPO INFO] lwnoc_topo.topo_core:   Created wrapper IO 'aon_ss_iniu_sys_side_req_async_porting_req_rptr_sync' for interface 'aon_ss_iniu_sys_side.req_async_porting'
2026-04-27 19:04:04 [TOPO INFO] lwnoc_topo.topo_core:   Created wrapper IO 'aon_ss_iniu_sys_side_req_async_porting_req_wptr_async' for interface 'aon_ss_iniu_sys_side.req_async_porting'
2026-04-27 19:04:04 [TOPO INFO] lwnoc_topo.topo_core:   Created wrapper IO 'aon_ss_iniu_sys_side_rsp_async_porting_rsp_pld_sync' for interface 'aon_ss_iniu_sys_side.rsp_async_porting'
2026-04-27 19:04:04 [TOPO INFO] lwnoc_topo.topo_core:   Created wrapper IO 'aon_ss_iniu_sys_side_rsp_async_porting_rsp_rptr_async' for interface 'aon_ss_iniu_sys_side.rsp_async_porting'
2026-04-27 19:04:04 [TOPO INFO] lwnoc_topo.topo_core:   Created wrapper IO 'aon_ss_iniu_sys_side_rsp_async_porting_rsp_rptr_sync' for interface 'aon_ss_iniu_sys_side.rsp_async_porting'
2026-04-27 19:04:04 [TOPO INFO] lwnoc_topo.topo_core:   Created wrapper IO 'aon_ss_iniu_sys_side_rsp_async_porting_rsp_wptr_async' for interface 'aon_ss_iniu_sys_side.rsp_async_porting'
2026-04-27 19:04:04 [TOPO INFO] lwnoc_topo.topo_core:   Created wrapper IO 'aon_ss_iniu_sys_side_cti_event_porting_cti_event_in' for interface 'aon_ss_iniu_sys_side.cti_event_porting'
2026-04-27 19:04:04 [TOPO INFO] lwnoc_topo.topo_core:   Created wrapper IO 'aon_ss_iniu_sys_side_cti_event_porting_cti_event_in_ack' for interface 'aon_ss_iniu_sys_side.cti_event_porting'
2026-04-27 19:04:04 [TOPO INFO] lwnoc_topo.topo_core:   Created wrapper IO 'aon_ss_iniu_sys_side_cti_event_porting_cti_event_in_req' for interface 'aon_ss_iniu_sys_side.cti_event_porting'
2026-04-27 19:04:04 [TOPO INFO] lwnoc_topo.topo_core:   Created wrapper IO 'aon_ss_iniu_sys_side_cti_event_porting_cti_event_out' for interface 'aon_ss_iniu_sys_side.cti_event_porting'
2026-04-27 19:04:04 [TOPO INFO] lwnoc_topo.topo_core:   Created wrapper IO 'aon_ss_iniu_sys_side_cti_event_porting_cti_event_out_ack' for interface 'aon_ss_iniu_sys_side.cti_event_porting'
2026-04-27 19:04:04 [TOPO INFO] lwnoc_topo.topo_core:   Created wrapper IO 'aon_ss_iniu_sys_side_cti_event_porting_cti_event_out_req' for interface 'aon_ss_iniu_sys_side.cti_event_porting'
2026-04-27 19:04:04 [TOPO INFO] lwnoc_topo.topo_core:   Created wrapper IO 'aon_ss_iniu_sys_side_cti_channel_porting_cti_channel_in' for interface 'aon_ss_iniu_sys_side.cti_channel_porting'
2026-04-27 19:04:04 [TOPO INFO] lwnoc_topo.topo_core:   Created wrapper IO 'aon_ss_iniu_sys_side_cti_channel_porting_cti_channel_in_ack' for interface 'aon_ss_iniu_sys_side.cti_channel_porting'
2026-04-27 19:04:04 [TOPO INFO] lwnoc_topo.topo_core:   Created wrapper IO 'aon_ss_iniu_sys_side_cti_channel_porting_cti_channel_in_req' for interface 'aon_ss_iniu_sys_side.cti_channel_porting'
2026-04-27 19:04:04 [TOPO INFO] lwnoc_topo.topo_core:   Created wrapper IO 'aon_ss_iniu_sys_side_cti_channel_porting_cti_channel_out' for interface 'aon_ss_iniu_sys_side.cti_channel_porting'
2026-04-27 19:04:04 [TOPO INFO] lwnoc_topo.topo_core:   Created wrapper IO 'aon_ss_iniu_sys_side_cti_channel_porting_cti_channel_out_ack' for interface 'aon_ss_iniu_sys_side.cti_channel_porting'
2026-04-27 19:04:04 [TOPO INFO] lwnoc_topo.topo_core:   Created wrapper IO 'aon_ss_iniu_sys_side_cti_channel_porting_cti_channel_out_req' for interface 'aon_ss_iniu_sys_side.cti_channel_porting'
2026-04-27 19:04:04 [TOPO INFO] lwnoc_topo.topo_core:   Created wrapper IO 'aon_ss_iniu_sys_side_dbg_timestamp_porting_dbg_timestamp_in' for interface 'aon_ss_iniu_sys_side.dbg_timestamp_porting'
2026-04-27 19:04:04 [TOPO INFO] lwnoc_topo.topo_core:   Created wrapper IO 'aon_ss_iniu_sys_side_dbg_timestamp_porting_dbg_timestamp_out' for interface 'aon_ss_iniu_sys_side.dbg_timestamp_porting'
2026-04-27 19:04:04 [TOPO INFO] lwnoc_topo.topo_core:   Created wrapper IO 'aon_ss_iniu_sys_side_dbg_data_porting_dbg_data_in' for interface 'aon_ss_iniu_sys_side.dbg_data_porting'
2026-04-27 19:04:04 [TOPO INFO] lwnoc_topo.topo_core:   Created wrapper IO 'aon_ss_iniu_sys_side_dbg_data_porting_dbg_data_out' for interface 'aon_ss_iniu_sys_side.dbg_data_porting'
2026-04-27 19:04:04 [TOPO INFO] lwnoc_topo.topo_core: Completed UHDL build for wrapper 'aon_ss_iniu'
2026-04-27 19:04:04 [TOPO INFO] lwnoc_topo.topo_core:   Instantiated subnode 'aon_ss_iniu' in wrapper 'soc_sts_noc'
2026-04-27 19:04:04 [TOPO INFO] lwnoc_topo.topo_core:   Instantiated subnode 'dec0' in wrapper 'soc_sts_noc'
2026-04-27 19:04:04 [TOPO INFO] lwnoc_topo.topo_core:   Instantiated subnode 'dec1' in wrapper 'soc_sts_noc'
2026-04-27 19:04:04 [TOPO INFO] lwnoc_topo.topo_core:   Instantiated subnode 'dec2' in wrapper 'soc_sts_noc'
2026-04-27 19:04:04 [TOPO INFO] lwnoc_topo.topo_core:   Instantiated subnode 'dec2_ext' in wrapper 'soc_sts_noc'
2026-04-27 19:04:04 [TOPO INFO] lwnoc_topo.topo_core:   Instantiated subnode 'harden_dn_async_bridge_slv' in wrapper 'soc_sts_noc'
2026-04-27 19:04:04 [TOPO INFO] lwnoc_topo.topo_core:   Instantiated subnode 'harden_up_async_bridge_mst' in wrapper 'soc_sts_noc'
2026-04-27 19:04:04 [TOPO INFO] lwnoc_topo.topo_core: Building UHDL for wrapper 'vpu_ss_tniu' (2 subnodes, 25 interfaces)
2026-04-27 19:04:04 [TOPO INFO] lwnoc_topo.topo_core:   Instantiated subnode 'sys_side' in wrapper 'vpu_ss_tniu'
2026-04-27 19:04:04 [TOPO INFO] lwnoc_topo.topo_core:   Instantiated subnode 'top_side' in wrapper 'vpu_ss_tniu'
2026-04-27 19:04:04 [TOPO INFO] lwnoc_topo.topo_core:   Created wrapper IO 'clk_src' for interface 'clk_src'
2026-04-27 19:04:04 [TOPO INFO] lwnoc_topo.topo_core:   Created wrapper IO 'rstn_src' for interface 'rstn_src'
2026-04-27 19:04:04 [TOPO INFO] lwnoc_topo.topo_core:   Created wrapper IO 'clk_dst' for interface 'clk_dst'
2026-04-27 19:04:04 [TOPO INFO] lwnoc_topo.topo_core:   Created wrapper IO 'rstn_dst' for interface 'rstn_dst'
2026-04-27 19:04:04 [TOPO INFO] lwnoc_topo.topo_core:   Created wrapper IO 'clk_dbg_timer' for interface 'clk_dbg_timer'
2026-04-27 19:04:04 [TOPO INFO] lwnoc_topo.topo_core:   Created wrapper IO 'rstn_dbg_timer' for interface 'rstn_dbg_timer'
2026-04-27 19:04:04 [TOPO INFO] lwnoc_topo.topo_core:   Created wrapper IO 'req_in_req_pld' for interface 'req'
2026-04-27 19:04:04 [TOPO INFO] lwnoc_topo.topo_core:   Created wrapper IO 'req_in_req_rdy' for interface 'req'
2026-04-27 19:04:04 [TOPO INFO] lwnoc_topo.topo_core:   Created wrapper IO 'req_in_req_vld' for interface 'req'
2026-04-27 19:04:04 [TOPO INFO] lwnoc_topo.topo_core:   Created wrapper IO 'rsp_out_rsp_pld' for interface 'rsp'
2026-04-27 19:04:04 [TOPO INFO] lwnoc_topo.topo_core:   Created wrapper IO 'rsp_out_rsp_rdy' for interface 'rsp'
2026-04-27 19:04:04 [TOPO INFO] lwnoc_topo.topo_core:   Created wrapper IO 'rsp_out_rsp_vld' for interface 'rsp'
2026-04-27 19:04:04 [TOPO INFO] lwnoc_topo.topo_core:   Created wrapper IO 'pmc_apb_pmc_paddr' for interface 'pmc_apb'
2026-04-27 19:04:04 [TOPO INFO] lwnoc_topo.topo_core:   Created wrapper IO 'pmc_apb_pmc_penable' for interface 'pmc_apb'
2026-04-27 19:04:04 [TOPO INFO] lwnoc_topo.topo_core:   Created wrapper IO 'pmc_apb_pmc_pprot' for interface 'pmc_apb'
2026-04-27 19:04:04 [TOPO INFO] lwnoc_topo.topo_core:   Created wrapper IO 'pmc_apb_pmc_prdata' for interface 'pmc_apb'
2026-04-27 19:04:04 [TOPO INFO] lwnoc_topo.topo_core:   Created wrapper IO 'pmc_apb_pmc_pready' for interface 'pmc_apb'
2026-04-27 19:04:04 [TOPO INFO] lwnoc_topo.topo_core:   Created wrapper IO 'pmc_apb_pmc_psel' for interface 'pmc_apb'
2026-04-27 19:04:04 [TOPO INFO] lwnoc_topo.topo_core:   Created wrapper IO 'pmc_apb_pmc_pslverr' for interface 'pmc_apb'
2026-04-27 19:04:04 [TOPO INFO] lwnoc_topo.topo_core:   Created wrapper IO 'pmc_apb_pmc_pstrb' for interface 'pmc_apb'
2026-04-27 19:04:04 [TOPO INFO] lwnoc_topo.topo_core:   Created wrapper IO 'pmc_apb_pmc_pwdata' for interface 'pmc_apb'
2026-04-27 19:04:04 [TOPO INFO] lwnoc_topo.topo_core:   Created wrapper IO 'pmc_apb_pmc_pwrite' for interface 'pmc_apb'
2026-04-27 19:04:04 [TOPO INFO] lwnoc_topo.topo_core:   Created wrapper IO 'sys_apb_m_paddr' for interface 'sys_apb'
2026-04-27 19:04:04 [TOPO INFO] lwnoc_topo.topo_core:   Created wrapper IO 'sys_apb_m_penable' for interface 'sys_apb'
2026-04-27 19:04:04 [TOPO INFO] lwnoc_topo.topo_core:   Created wrapper IO 'sys_apb_m_pprot' for interface 'sys_apb'
2026-04-27 19:04:04 [TOPO INFO] lwnoc_topo.topo_core:   Created wrapper IO 'sys_apb_m_prdata' for interface 'sys_apb'
2026-04-27 19:04:04 [TOPO INFO] lwnoc_topo.topo_core:   Created wrapper IO 'sys_apb_m_pready' for interface 'sys_apb'
2026-04-27 19:04:04 [TOPO INFO] lwnoc_topo.topo_core:   Created wrapper IO 'sys_apb_m_psel' for interface 'sys_apb'
2026-04-27 19:04:04 [TOPO INFO] lwnoc_topo.topo_core:   Created wrapper IO 'sys_apb_m_pslverr' for interface 'sys_apb'
2026-04-27 19:04:04 [TOPO INFO] lwnoc_topo.topo_core:   Created wrapper IO 'sys_apb_m_pstrb' for interface 'sys_apb'
2026-04-27 19:04:04 [TOPO INFO] lwnoc_topo.topo_core:   Created wrapper IO 'sys_apb_m_pwdata' for interface 'sys_apb'
2026-04-27 19:04:04 [TOPO INFO] lwnoc_topo.topo_core:   Created wrapper IO 'sys_apb_m_pwrite' for interface 'sys_apb'
2026-04-27 19:04:04 [TOPO INFO] lwnoc_topo.topo_core:   Created wrapper IO 'dbg_data_dbg_data_in' for interface 'dbg_data'
2026-04-27 19:04:04 [TOPO INFO] lwnoc_topo.topo_core:   Created wrapper IO 'dbg_data_dbg_data_out' for interface 'dbg_data'
2026-04-27 19:04:04 [TOPO INFO] lwnoc_topo.topo_core:   Created wrapper IO 'dbg_timestamp_dbg_timestamp_in' for interface 'dbg_timestamp'
2026-04-27 19:04:04 [TOPO INFO] lwnoc_topo.topo_core:   Created wrapper IO 'dbg_timestamp_dbg_timestamp_out' for interface 'dbg_timestamp'
2026-04-27 19:04:04 [TOPO INFO] lwnoc_topo.topo_core:   Created wrapper IO 'sys_cti_event_sys_cti_event_in' for interface 'sys_cti_event'
2026-04-27 19:04:04 [TOPO INFO] lwnoc_topo.topo_core:   Created wrapper IO 'sys_cti_event_sys_cti_event_out' for interface 'sys_cti_event'
2026-04-27 19:04:04 [TOPO INFO] lwnoc_topo.topo_core:   Created wrapper IO 'noc_cti_event_noc_cti_event_in' for interface 'noc_cti_event'
2026-04-27 19:04:04 [TOPO INFO] lwnoc_topo.topo_core:   Created wrapper IO 'noc_cti_event_noc_cti_event_out' for interface 'noc_cti_event'
2026-04-27 19:04:04 [TOPO INFO] lwnoc_topo.topo_core:   Created wrapper IO 'sys_cti_channel_sys_cti_channel_in' for interface 'sys_cti_channel'
2026-04-27 19:04:04 [TOPO INFO] lwnoc_topo.topo_core:   Created wrapper IO 'sys_cti_channel_sys_cti_channel_out' for interface 'sys_cti_channel'
2026-04-27 19:04:04 [TOPO INFO] lwnoc_topo.topo_core:   Created wrapper IO 'noc_cti_channel_noc_cti_channel_in' for interface 'noc_cti_channel'
2026-04-27 19:04:04 [TOPO INFO] lwnoc_topo.topo_core:   Created wrapper IO 'noc_cti_channel_noc_cti_channel_out' for interface 'noc_cti_channel'
2026-04-27 19:04:04 [TOPO INFO] lwnoc_topo.topo_core:   Created wrapper IO 'vpu_ss_tniu_sys_async_req_porting_req_pld_sync' for interface 'vpu_ss_tniu_sys.async_req_porting'
2026-04-27 19:04:04 [TOPO INFO] lwnoc_topo.topo_core:   Created wrapper IO 'vpu_ss_tniu_sys_async_req_porting_req_rptr_async' for interface 'vpu_ss_tniu_sys.async_req_porting'
2026-04-27 19:04:04 [TOPO INFO] lwnoc_topo.topo_core:   Created wrapper IO 'vpu_ss_tniu_sys_async_req_porting_req_rptr_sync' for interface 'vpu_ss_tniu_sys.async_req_porting'
2026-04-27 19:04:04 [TOPO INFO] lwnoc_topo.topo_core:   Created wrapper IO 'vpu_ss_tniu_sys_async_req_porting_req_wptr_async' for interface 'vpu_ss_tniu_sys.async_req_porting'
2026-04-27 19:04:04 [TOPO INFO] lwnoc_topo.topo_core:   Created wrapper IO 'vpu_ss_tniu_sys_async_rsp_porting_rsp_pld_sync' for interface 'vpu_ss_tniu_sys.async_rsp_porting'
2026-04-27 19:04:04 [TOPO INFO] lwnoc_topo.topo_core:   Created wrapper IO 'vpu_ss_tniu_sys_async_rsp_porting_rsp_rptr_async' for interface 'vpu_ss_tniu_sys.async_rsp_porting'
2026-04-27 19:04:04 [TOPO INFO] lwnoc_topo.topo_core:   Created wrapper IO 'vpu_ss_tniu_sys_async_rsp_porting_rsp_rptr_sync' for interface 'vpu_ss_tniu_sys.async_rsp_porting'
2026-04-27 19:04:04 [TOPO INFO] lwnoc_topo.topo_core:   Created wrapper IO 'vpu_ss_tniu_sys_async_rsp_porting_rsp_wptr_async' for interface 'vpu_ss_tniu_sys.async_rsp_porting'
2026-04-27 19:04:04 [TOPO INFO] lwnoc_topo.topo_core:   Created wrapper IO 'vpu_ss_tniu_sys_apb_m_porting_m_paddr' for interface 'vpu_ss_tniu_sys.apb_m_porting'
2026-04-27 19:04:04 [TOPO INFO] lwnoc_topo.topo_core:   Created wrapper IO 'vpu_ss_tniu_sys_apb_m_porting_m_penable' for interface 'vpu_ss_tniu_sys.apb_m_porting'
2026-04-27 19:04:04 [TOPO INFO] lwnoc_topo.topo_core:   Created wrapper IO 'vpu_ss_tniu_sys_apb_m_porting_m_pprot' for interface 'vpu_ss_tniu_sys.apb_m_porting'
2026-04-27 19:04:04 [TOPO INFO] lwnoc_topo.topo_core:   Created wrapper IO 'vpu_ss_tniu_sys_apb_m_porting_m_prdata' for interface 'vpu_ss_tniu_sys.apb_m_porting'
2026-04-27 19:04:04 [TOPO INFO] lwnoc_topo.topo_core:   Created wrapper IO 'vpu_ss_tniu_sys_apb_m_porting_m_pready' for interface 'vpu_ss_tniu_sys.apb_m_porting'
2026-04-27 19:04:04 [TOPO INFO] lwnoc_topo.topo_core:   Created wrapper IO 'vpu_ss_tniu_sys_apb_m_porting_m_psel' for interface 'vpu_ss_tniu_sys.apb_m_porting'
2026-04-27 19:04:04 [TOPO INFO] lwnoc_topo.topo_core:   Created wrapper IO 'vpu_ss_tniu_sys_apb_m_porting_m_pslverr' for interface 'vpu_ss_tniu_sys.apb_m_porting'
2026-04-27 19:04:04 [TOPO INFO] lwnoc_topo.topo_core:   Created wrapper IO 'vpu_ss_tniu_sys_apb_m_porting_m_pstrb' for interface 'vpu_ss_tniu_sys.apb_m_porting'
2026-04-27 19:04:04 [TOPO INFO] lwnoc_topo.topo_core:   Created wrapper IO 'vpu_ss_tniu_sys_apb_m_porting_m_pwdata' for interface 'vpu_ss_tniu_sys.apb_m_porting'
2026-04-27 19:04:04 [TOPO INFO] lwnoc_topo.topo_core:   Created wrapper IO 'vpu_ss_tniu_sys_apb_m_porting_m_pwrite' for interface 'vpu_ss_tniu_sys.apb_m_porting'
2026-04-27 19:04:04 [TOPO INFO] lwnoc_topo.topo_core:   Created wrapper IO 'vpu_ss_tniu_sys_cti_event_porting_cti_event_in' for interface 'vpu_ss_tniu_sys.cti_event_porting'
2026-04-27 19:04:04 [TOPO INFO] lwnoc_topo.topo_core:   Created wrapper IO 'vpu_ss_tniu_sys_cti_event_porting_cti_event_in_ack' for interface 'vpu_ss_tniu_sys.cti_event_porting'
2026-04-27 19:04:04 [TOPO INFO] lwnoc_topo.topo_core:   Created wrapper IO 'vpu_ss_tniu_sys_cti_event_porting_cti_event_in_req' for interface 'vpu_ss_tniu_sys.cti_event_porting'
2026-04-27 19:04:04 [TOPO INFO] lwnoc_topo.topo_core:   Created wrapper IO 'vpu_ss_tniu_sys_cti_event_porting_cti_event_out' for interface 'vpu_ss_tniu_sys.cti_event_porting'
2026-04-27 19:04:04 [TOPO INFO] lwnoc_topo.topo_core:   Created wrapper IO 'vpu_ss_tniu_sys_cti_event_porting_cti_event_out_ack' for interface 'vpu_ss_tniu_sys.cti_event_porting'
2026-04-27 19:04:04 [TOPO INFO] lwnoc_topo.topo_core:   Created wrapper IO 'vpu_ss_tniu_sys_cti_event_porting_cti_event_out_req' for interface 'vpu_ss_tniu_sys.cti_event_porting'
2026-04-27 19:04:04 [TOPO INFO] lwnoc_topo.topo_core:   Created wrapper IO 'vpu_ss_tniu_sys_cti_channel_porting_cti_channel_in' for interface 'vpu_ss_tniu_sys.cti_channel_porting'
2026-04-27 19:04:04 [TOPO INFO] lwnoc_topo.topo_core:   Created wrapper IO 'vpu_ss_tniu_sys_cti_channel_porting_cti_channel_in_ack' for interface 'vpu_ss_tniu_sys.cti_channel_porting'
2026-04-27 19:04:04 [TOPO INFO] lwnoc_topo.topo_core:   Created wrapper IO 'vpu_ss_tniu_sys_cti_channel_porting_cti_channel_in_req' for interface 'vpu_ss_tniu_sys.cti_channel_porting'
2026-04-27 19:04:04 [TOPO INFO] lwnoc_topo.topo_core:   Created wrapper IO 'vpu_ss_tniu_sys_cti_channel_porting_cti_channel_out' for interface 'vpu_ss_tniu_sys.cti_channel_porting'
2026-04-27 19:04:04 [TOPO INFO] lwnoc_topo.topo_core:   Created wrapper IO 'vpu_ss_tniu_sys_cti_channel_porting_cti_channel_out_ack' for interface 'vpu_ss_tniu_sys.cti_channel_porting'
2026-04-27 19:04:04 [TOPO INFO] lwnoc_topo.topo_core:   Created wrapper IO 'vpu_ss_tniu_sys_cti_channel_porting_cti_channel_out_req' for interface 'vpu_ss_tniu_sys.cti_channel_porting'
2026-04-27 19:04:04 [TOPO INFO] lwnoc_topo.topo_core:   Created wrapper IO 'vpu_ss_tniu_sys_dbg_data_porting_dbg_data_in' for interface 'vpu_ss_tniu_sys.dbg_data_porting'
2026-04-27 19:04:04 [TOPO INFO] lwnoc_topo.topo_core:   Created wrapper IO 'vpu_ss_tniu_sys_dbg_data_porting_dbg_data_out' for interface 'vpu_ss_tniu_sys.dbg_data_porting'
2026-04-27 19:04:04 [TOPO INFO] lwnoc_topo.topo_core:   Created wrapper IO 'vpu_ss_tniu_sys_dbg_timestamp_porting_dbg_timestamp_in' for interface 'vpu_ss_tniu_sys.dbg_timestamp_porting'
2026-04-27 19:04:04 [TOPO INFO] lwnoc_topo.topo_core:   Created wrapper IO 'vpu_ss_tniu_sys_dbg_timestamp_porting_dbg_timestamp_out' for interface 'vpu_ss_tniu_sys.dbg_timestamp_porting'
2026-04-27 19:04:04 [TOPO INFO] lwnoc_topo.topo_core:   Created wrapper IO 'vpu_ss_tniu_top_timing_bus_porting_timing_bus1' for interface 'vpu_ss_tniu_top.timing_bus_porting'
2026-04-27 19:04:04 [TOPO INFO] lwnoc_topo.topo_core:   Created wrapper IO 'vpu_ss_tniu_top_timing_bus_porting_timing_bus2' for interface 'vpu_ss_tniu_top.timing_bus_porting'
2026-04-27 19:04:04 [TOPO INFO] lwnoc_topo.topo_core:   Created wrapper IO 'vpu_ss_tniu_top_timing_bus_porting_timing_bus3' for interface 'vpu_ss_tniu_top.timing_bus_porting'
2026-04-27 19:04:04 [TOPO INFO] lwnoc_topo.topo_core:   Created wrapper IO 'vpu_ss_tniu_top_dbg_en_porting_dbg_en' for interface 'vpu_ss_tniu_top.dbg_en_porting'
2026-04-27 19:04:04 [TOPO INFO] lwnoc_topo.topo_core: Completed UHDL build for wrapper 'vpu_ss_tniu'
2026-04-27 19:04:04 [TOPO INFO] lwnoc_topo.topo_core:   Instantiated subnode 'vpu_ss_tniu' in wrapper 'soc_sts_noc'
2026-04-27 19:04:04 [TOPO INFO] lwnoc_topo.topo_core: Building UHDL for wrapper 'camera_ss_tniu' (2 subnodes, 25 interfaces)
2026-04-27 19:04:04 [TOPO INFO] lwnoc_topo.topo_core:   Instantiated subnode 'sys_side' in wrapper 'camera_ss_tniu'
2026-04-27 19:04:04 [TOPO INFO] lwnoc_topo.topo_core:   Instantiated subnode 'top_side' in wrapper 'camera_ss_tniu'
2026-04-27 19:04:04 [TOPO INFO] lwnoc_topo.topo_core:   Created wrapper IO 'clk_src' for interface 'clk_src'
2026-04-27 19:04:04 [TOPO INFO] lwnoc_topo.topo_core:   Created wrapper IO 'rstn_src' for interface 'rstn_src'
2026-04-27 19:04:04 [TOPO INFO] lwnoc_topo.topo_core:   Created wrapper IO 'clk_dst' for interface 'clk_dst'
2026-04-27 19:04:04 [TOPO INFO] lwnoc_topo.topo_core:   Created wrapper IO 'rstn_dst' for interface 'rstn_dst'
2026-04-27 19:04:04 [TOPO INFO] lwnoc_topo.topo_core:   Created wrapper IO 'clk_dbg_timer' for interface 'clk_dbg_timer'
2026-04-27 19:04:04 [TOPO INFO] lwnoc_topo.topo_core:   Created wrapper IO 'rstn_dbg_timer' for interface 'rstn_dbg_timer'
2026-04-27 19:04:04 [TOPO INFO] lwnoc_topo.topo_core:   Created wrapper IO 'req_in_req_pld' for interface 'req'
2026-04-27 19:04:04 [TOPO INFO] lwnoc_topo.topo_core:   Created wrapper IO 'req_in_req_rdy' for interface 'req'
2026-04-27 19:04:04 [TOPO INFO] lwnoc_topo.topo_core:   Created wrapper IO 'req_in_req_vld' for interface 'req'
2026-04-27 19:04:04 [TOPO INFO] lwnoc_topo.topo_core:   Created wrapper IO 'rsp_out_rsp_pld' for interface 'rsp'
2026-04-27 19:04:04 [TOPO INFO] lwnoc_topo.topo_core:   Created wrapper IO 'rsp_out_rsp_rdy' for interface 'rsp'
2026-04-27 19:04:04 [TOPO INFO] lwnoc_topo.topo_core:   Created wrapper IO 'rsp_out_rsp_vld' for interface 'rsp'
2026-04-27 19:04:04 [TOPO INFO] lwnoc_topo.topo_core:   Created wrapper IO 'pmc_apb_pmc_paddr' for interface 'pmc_apb'
2026-04-27 19:04:04 [TOPO INFO] lwnoc_topo.topo_core:   Created wrapper IO 'pmc_apb_pmc_penable' for interface 'pmc_apb'
2026-04-27 19:04:04 [TOPO INFO] lwnoc_topo.topo_core:   Created wrapper IO 'pmc_apb_pmc_pprot' for interface 'pmc_apb'
2026-04-27 19:04:04 [TOPO INFO] lwnoc_topo.topo_core:   Created wrapper IO 'pmc_apb_pmc_prdata' for interface 'pmc_apb'
2026-04-27 19:04:04 [TOPO INFO] lwnoc_topo.topo_core:   Created wrapper IO 'pmc_apb_pmc_pready' for interface 'pmc_apb'
2026-04-27 19:04:04 [TOPO INFO] lwnoc_topo.topo_core:   Created wrapper IO 'pmc_apb_pmc_psel' for interface 'pmc_apb'
2026-04-27 19:04:04 [TOPO INFO] lwnoc_topo.topo_core:   Created wrapper IO 'pmc_apb_pmc_pslverr' for interface 'pmc_apb'
2026-04-27 19:04:04 [TOPO INFO] lwnoc_topo.topo_core:   Created wrapper IO 'pmc_apb_pmc_pstrb' for interface 'pmc_apb'
2026-04-27 19:04:04 [TOPO INFO] lwnoc_topo.topo_core:   Created wrapper IO 'pmc_apb_pmc_pwdata' for interface 'pmc_apb'
2026-04-27 19:04:04 [TOPO INFO] lwnoc_topo.topo_core:   Created wrapper IO 'pmc_apb_pmc_pwrite' for interface 'pmc_apb'
2026-04-27 19:04:04 [TOPO INFO] lwnoc_topo.topo_core:   Created wrapper IO 'sys_apb_m_paddr' for interface 'sys_apb'
2026-04-27 19:04:04 [TOPO INFO] lwnoc_topo.topo_core:   Created wrapper IO 'sys_apb_m_penable' for interface 'sys_apb'
2026-04-27 19:04:04 [TOPO INFO] lwnoc_topo.topo_core:   Created wrapper IO 'sys_apb_m_pprot' for interface 'sys_apb'
2026-04-27 19:04:04 [TOPO INFO] lwnoc_topo.topo_core:   Created wrapper IO 'sys_apb_m_prdata' for interface 'sys_apb'
2026-04-27 19:04:04 [TOPO INFO] lwnoc_topo.topo_core:   Created wrapper IO 'sys_apb_m_pready' for interface 'sys_apb'
2026-04-27 19:04:04 [TOPO INFO] lwnoc_topo.topo_core:   Created wrapper IO 'sys_apb_m_psel' for interface 'sys_apb'
2026-04-27 19:04:04 [TOPO INFO] lwnoc_topo.topo_core:   Created wrapper IO 'sys_apb_m_pslverr' for interface 'sys_apb'
2026-04-27 19:04:04 [TOPO INFO] lwnoc_topo.topo_core:   Created wrapper IO 'sys_apb_m_pstrb' for interface 'sys_apb'
2026-04-27 19:04:04 [TOPO INFO] lwnoc_topo.topo_core:   Created wrapper IO 'sys_apb_m_pwdata' for interface 'sys_apb'
2026-04-27 19:04:04 [TOPO INFO] lwnoc_topo.topo_core:   Created wrapper IO 'sys_apb_m_pwrite' for interface 'sys_apb'
2026-04-27 19:04:04 [TOPO INFO] lwnoc_topo.topo_core:   Created wrapper IO 'dbg_data_dbg_data_in' for interface 'dbg_data'
2026-04-27 19:04:04 [TOPO INFO] lwnoc_topo.topo_core:   Created wrapper IO 'dbg_data_dbg_data_out' for interface 'dbg_data'
2026-04-27 19:04:04 [TOPO INFO] lwnoc_topo.topo_core:   Created wrapper IO 'dbg_timestamp_dbg_timestamp_in' for interface 'dbg_timestamp'
2026-04-27 19:04:04 [TOPO INFO] lwnoc_topo.topo_core:   Created wrapper IO 'dbg_timestamp_dbg_timestamp_out' for interface 'dbg_timestamp'
2026-04-27 19:04:04 [TOPO INFO] lwnoc_topo.topo_core:   Created wrapper IO 'sys_cti_event_sys_cti_event_in' for interface 'sys_cti_event'
2026-04-27 19:04:04 [TOPO INFO] lwnoc_topo.topo_core:   Created wrapper IO 'sys_cti_event_sys_cti_event_out' for interface 'sys_cti_event'
2026-04-27 19:04:04 [TOPO INFO] lwnoc_topo.topo_core:   Created wrapper IO 'noc_cti_event_noc_cti_event_in' for interface 'noc_cti_event'
2026-04-27 19:04:04 [TOPO INFO] lwnoc_topo.topo_core:   Created wrapper IO 'noc_cti_event_noc_cti_event_out' for interface 'noc_cti_event'
2026-04-27 19:04:04 [TOPO INFO] lwnoc_topo.topo_core:   Created wrapper IO 'sys_cti_channel_sys_cti_channel_in' for interface 'sys_cti_channel'
2026-04-27 19:04:04 [TOPO INFO] lwnoc_topo.topo_core:   Created wrapper IO 'sys_cti_channel_sys_cti_channel_out' for interface 'sys_cti_channel'
2026-04-27 19:04:04 [TOPO INFO] lwnoc_topo.topo_core:   Created wrapper IO 'noc_cti_channel_noc_cti_channel_in' for interface 'noc_cti_channel'
2026-04-27 19:04:04 [TOPO INFO] lwnoc_topo.topo_core:   Created wrapper IO 'noc_cti_channel_noc_cti_channel_out' for interface 'noc_cti_channel'
2026-04-27 19:04:04 [TOPO INFO] lwnoc_topo.topo_core:   Created wrapper IO 'camera_ss_tniu_sys_async_req_porting_req_pld_sync' for interface 'camera_ss_tniu_sys.async_req_porting'
2026-04-27 19:04:04 [TOPO INFO] lwnoc_topo.topo_core:   Created wrapper IO 'camera_ss_tniu_sys_async_req_porting_req_rptr_async' for interface 'camera_ss_tniu_sys.async_req_porting'
2026-04-27 19:04:04 [TOPO INFO] lwnoc_topo.topo_core:   Created wrapper IO 'camera_ss_tniu_sys_async_req_porting_req_rptr_sync' for interface 'camera_ss_tniu_sys.async_req_porting'
2026-04-27 19:04:04 [TOPO INFO] lwnoc_topo.topo_core:   Created wrapper IO 'camera_ss_tniu_sys_async_req_porting_req_wptr_async' for interface 'camera_ss_tniu_sys.async_req_porting'
2026-04-27 19:04:04 [TOPO INFO] lwnoc_topo.topo_core:   Created wrapper IO 'camera_ss_tniu_sys_async_rsp_porting_rsp_pld_sync' for interface 'camera_ss_tniu_sys.async_rsp_porting'
2026-04-27 19:04:04 [TOPO INFO] lwnoc_topo.topo_core:   Created wrapper IO 'camera_ss_tniu_sys_async_rsp_porting_rsp_rptr_async' for interface 'camera_ss_tniu_sys.async_rsp_porting'
2026-04-27 19:04:04 [TOPO INFO] lwnoc_topo.topo_core:   Created wrapper IO 'camera_ss_tniu_sys_async_rsp_porting_rsp_rptr_sync' for interface 'camera_ss_tniu_sys.async_rsp_porting'
2026-04-27 19:04:04 [TOPO INFO] lwnoc_topo.topo_core:   Created wrapper IO 'camera_ss_tniu_sys_async_rsp_porting_rsp_wptr_async' for interface 'camera_ss_tniu_sys.async_rsp_porting'
2026-04-27 19:04:04 [TOPO INFO] lwnoc_topo.topo_core:   Created wrapper IO 'camera_ss_tniu_sys_apb_m_porting_m_paddr' for interface 'camera_ss_tniu_sys.apb_m_porting'
2026-04-27 19:04:04 [TOPO INFO] lwnoc_topo.topo_core:   Created wrapper IO 'camera_ss_tniu_sys_apb_m_porting_m_penable' for interface 'camera_ss_tniu_sys.apb_m_porting'
2026-04-27 19:04:04 [TOPO INFO] lwnoc_topo.topo_core:   Created wrapper IO 'camera_ss_tniu_sys_apb_m_porting_m_pprot' for interface 'camera_ss_tniu_sys.apb_m_porting'
2026-04-27 19:04:04 [TOPO INFO] lwnoc_topo.topo_core:   Created wrapper IO 'camera_ss_tniu_sys_apb_m_porting_m_prdata' for interface 'camera_ss_tniu_sys.apb_m_porting'
2026-04-27 19:04:04 [TOPO INFO] lwnoc_topo.topo_core:   Created wrapper IO 'camera_ss_tniu_sys_apb_m_porting_m_pready' for interface 'camera_ss_tniu_sys.apb_m_porting'
2026-04-27 19:04:04 [TOPO INFO] lwnoc_topo.topo_core:   Created wrapper IO 'camera_ss_tniu_sys_apb_m_porting_m_psel' for interface 'camera_ss_tniu_sys.apb_m_porting'
2026-04-27 19:04:04 [TOPO INFO] lwnoc_topo.topo_core:   Created wrapper IO 'camera_ss_tniu_sys_apb_m_porting_m_pslverr' for interface 'camera_ss_tniu_sys.apb_m_porting'
2026-04-27 19:04:04 [TOPO INFO] lwnoc_topo.topo_core:   Created wrapper IO 'camera_ss_tniu_sys_apb_m_porting_m_pstrb' for interface 'camera_ss_tniu_sys.apb_m_porting'
2026-04-27 19:04:04 [TOPO INFO] lwnoc_topo.topo_core:   Created wrapper IO 'camera_ss_tniu_sys_apb_m_porting_m_pwdata' for interface 'camera_ss_tniu_sys.apb_m_porting'
2026-04-27 19:04:04 [TOPO INFO] lwnoc_topo.topo_core:   Created wrapper IO 'camera_ss_tniu_sys_apb_m_porting_m_pwrite' for interface 'camera_ss_tniu_sys.apb_m_porting'
2026-04-27 19:04:04 [TOPO INFO] lwnoc_topo.topo_core:   Created wrapper IO 'camera_ss_tniu_sys_cti_event_porting_cti_event_in' for interface 'camera_ss_tniu_sys.cti_event_porting'
2026-04-27 19:04:04 [TOPO INFO] lwnoc_topo.topo_core:   Created wrapper IO 'camera_ss_tniu_sys_cti_event_porting_cti_event_in_ack' for interface 'camera_ss_tniu_sys.cti_event_porting'
2026-04-27 19:04:04 [TOPO INFO] lwnoc_topo.topo_core:   Created wrapper IO 'camera_ss_tniu_sys_cti_event_porting_cti_event_in_req' for interface 'camera_ss_tniu_sys.cti_event_porting'
2026-04-27 19:04:04 [TOPO INFO] lwnoc_topo.topo_core:   Created wrapper IO 'camera_ss_tniu_sys_cti_event_porting_cti_event_out' for interface 'camera_ss_tniu_sys.cti_event_porting'
2026-04-27 19:04:04 [TOPO INFO] lwnoc_topo.topo_core:   Created wrapper IO 'camera_ss_tniu_sys_cti_event_porting_cti_event_out_ack' for interface 'camera_ss_tniu_sys.cti_event_porting'
2026-04-27 19:04:04 [TOPO INFO] lwnoc_topo.topo_core:   Created wrapper IO 'camera_ss_tniu_sys_cti_event_porting_cti_event_out_req' for interface 'camera_ss_tniu_sys.cti_event_porting'
2026-04-27 19:04:04 [TOPO INFO] lwnoc_topo.topo_core:   Created wrapper IO 'camera_ss_tniu_sys_cti_channel_porting_cti_channel_in' for interface 'camera_ss_tniu_sys.cti_channel_porting'
2026-04-27 19:04:04 [TOPO INFO] lwnoc_topo.topo_core:   Created wrapper IO 'camera_ss_tniu_sys_cti_channel_porting_cti_channel_in_ack' for interface 'camera_ss_tniu_sys.cti_channel_porting'
2026-04-27 19:04:04 [TOPO INFO] lwnoc_topo.topo_core:   Created wrapper IO 'camera_ss_tniu_sys_cti_channel_porting_cti_channel_in_req' for interface 'camera_ss_tniu_sys.cti_channel_porting'
2026-04-27 19:04:04 [TOPO INFO] lwnoc_topo.topo_core:   Created wrapper IO 'camera_ss_tniu_sys_cti_channel_porting_cti_channel_out' for interface 'camera_ss_tniu_sys.cti_channel_porting'
2026-04-27 19:04:04 [TOPO INFO] lwnoc_topo.topo_core:   Created wrapper IO 'camera_ss_tniu_sys_cti_channel_porting_cti_channel_out_ack' for interface 'camera_ss_tniu_sys.cti_channel_porting'
2026-04-27 19:04:04 [TOPO INFO] lwnoc_topo.topo_core:   Created wrapper IO 'camera_ss_tniu_sys_cti_channel_porting_cti_channel_out_req' for interface 'camera_ss_tniu_sys.cti_channel_porting'
2026-04-27 19:04:04 [TOPO INFO] lwnoc_topo.topo_core:   Created wrapper IO 'camera_ss_tniu_sys_dbg_data_porting_dbg_data_in' for interface 'camera_ss_tniu_sys.dbg_data_porting'
2026-04-27 19:04:04 [TOPO INFO] lwnoc_topo.topo_core:   Created wrapper IO 'camera_ss_tniu_sys_dbg_data_porting_dbg_data_out' for interface 'camera_ss_tniu_sys.dbg_data_porting'
2026-04-27 19:04:04 [TOPO INFO] lwnoc_topo.topo_core:   Created wrapper IO 'camera_ss_tniu_sys_dbg_timestamp_porting_dbg_timestamp_in' for interface 'camera_ss_tniu_sys.dbg_timestamp_porting'
2026-04-27 19:04:04 [TOPO INFO] lwnoc_topo.topo_core:   Created wrapper IO 'camera_ss_tniu_sys_dbg_timestamp_porting_dbg_timestamp_out' for interface 'camera_ss_tniu_sys.dbg_timestamp_porting'
2026-04-27 19:04:04 [TOPO INFO] lwnoc_topo.topo_core:   Created wrapper IO 'camera_ss_tniu_top_timing_bus_porting_timing_bus1' for interface 'camera_ss_tniu_top.timing_bus_porting'
2026-04-27 19:04:04 [TOPO INFO] lwnoc_topo.topo_core:   Created wrapper IO 'camera_ss_tniu_top_timing_bus_porting_timing_bus2' for interface 'camera_ss_tniu_top.timing_bus_porting'
2026-04-27 19:04:04 [TOPO INFO] lwnoc_topo.topo_core:   Created wrapper IO 'camera_ss_tniu_top_timing_bus_porting_timing_bus3' for interface 'camera_ss_tniu_top.timing_bus_porting'
2026-04-27 19:04:04 [TOPO INFO] lwnoc_topo.topo_core:   Created wrapper IO 'camera_ss_tniu_top_dbg_en_porting_dbg_en' for interface 'camera_ss_tniu_top.dbg_en_porting'
2026-04-27 19:04:04 [TOPO INFO] lwnoc_topo.topo_core: Completed UHDL build for wrapper 'camera_ss_tniu'
2026-04-27 19:04:04 [TOPO INFO] lwnoc_topo.topo_core:   Instantiated subnode 'camera_ss_tniu' in wrapper 'soc_sts_noc'
2026-04-27 19:04:04 [TOPO INFO] lwnoc_topo.topo_core: Building UHDL for wrapper 'dspss0_tniu' (2 subnodes, 25 interfaces)
2026-04-27 19:04:04 [TOPO INFO] lwnoc_topo.topo_core:   Instantiated subnode 'sys_side' in wrapper 'dspss0_tniu'
2026-04-27 19:04:04 [TOPO INFO] lwnoc_topo.topo_core:   Instantiated subnode 'top_side' in wrapper 'dspss0_tniu'
2026-04-27 19:04:04 [TOPO INFO] lwnoc_topo.topo_core:   Created wrapper IO 'clk_src' for interface 'clk_src'
2026-04-27 19:04:04 [TOPO INFO] lwnoc_topo.topo_core:   Created wrapper IO 'rstn_src' for interface 'rstn_src'
2026-04-27 19:04:04 [TOPO INFO] lwnoc_topo.topo_core:   Created wrapper IO 'clk_dst' for interface 'clk_dst'
2026-04-27 19:04:04 [TOPO INFO] lwnoc_topo.topo_core:   Created wrapper IO 'rstn_dst' for interface 'rstn_dst'
2026-04-27 19:04:04 [TOPO INFO] lwnoc_topo.topo_core:   Created wrapper IO 'clk_dbg_timer' for interface 'clk_dbg_timer'
2026-04-27 19:04:04 [TOPO INFO] lwnoc_topo.topo_core:   Created wrapper IO 'rstn_dbg_timer' for interface 'rstn_dbg_timer'
2026-04-27 19:04:04 [TOPO INFO] lwnoc_topo.topo_core:   Created wrapper IO 'req_in_req_pld' for interface 'req'
2026-04-27 19:04:04 [TOPO INFO] lwnoc_topo.topo_core:   Created wrapper IO 'req_in_req_rdy' for interface 'req'
2026-04-27 19:04:04 [TOPO INFO] lwnoc_topo.topo_core:   Created wrapper IO 'req_in_req_vld' for interface 'req'
2026-04-27 19:04:04 [TOPO INFO] lwnoc_topo.topo_core:   Created wrapper IO 'rsp_out_rsp_pld' for interface 'rsp'
2026-04-27 19:04:04 [TOPO INFO] lwnoc_topo.topo_core:   Created wrapper IO 'rsp_out_rsp_rdy' for interface 'rsp'
2026-04-27 19:04:04 [TOPO INFO] lwnoc_topo.topo_core:   Created wrapper IO 'rsp_out_rsp_vld' for interface 'rsp'
2026-04-27 19:04:04 [TOPO INFO] lwnoc_topo.topo_core:   Created wrapper IO 'pmc_apb_pmc_paddr' for interface 'pmc_apb'
2026-04-27 19:04:04 [TOPO INFO] lwnoc_topo.topo_core:   Created wrapper IO 'pmc_apb_pmc_penable' for interface 'pmc_apb'
2026-04-27 19:04:04 [TOPO INFO] lwnoc_topo.topo_core:   Created wrapper IO 'pmc_apb_pmc_pprot' for interface 'pmc_apb'
2026-04-27 19:04:04 [TOPO INFO] lwnoc_topo.topo_core:   Created wrapper IO 'pmc_apb_pmc_prdata' for interface 'pmc_apb'
2026-04-27 19:04:04 [TOPO INFO] lwnoc_topo.topo_core:   Created wrapper IO 'pmc_apb_pmc_pready' for interface 'pmc_apb'
2026-04-27 19:04:04 [TOPO INFO] lwnoc_topo.topo_core:   Created wrapper IO 'pmc_apb_pmc_psel' for interface 'pmc_apb'
2026-04-27 19:04:04 [TOPO INFO] lwnoc_topo.topo_core:   Created wrapper IO 'pmc_apb_pmc_pslverr' for interface 'pmc_apb'
2026-04-27 19:04:04 [TOPO INFO] lwnoc_topo.topo_core:   Created wrapper IO 'pmc_apb_pmc_pstrb' for interface 'pmc_apb'
2026-04-27 19:04:04 [TOPO INFO] lwnoc_topo.topo_core:   Created wrapper IO 'pmc_apb_pmc_pwdata' for interface 'pmc_apb'
2026-04-27 19:04:04 [TOPO INFO] lwnoc_topo.topo_core:   Created wrapper IO 'pmc_apb_pmc_pwrite' for interface 'pmc_apb'
2026-04-27 19:04:04 [TOPO INFO] lwnoc_topo.topo_core:   Created wrapper IO 'sys_apb_m_paddr' for interface 'sys_apb'
2026-04-27 19:04:04 [TOPO INFO] lwnoc_topo.topo_core:   Created wrapper IO 'sys_apb_m_penable' for interface 'sys_apb'
2026-04-27 19:04:04 [TOPO INFO] lwnoc_topo.topo_core:   Created wrapper IO 'sys_apb_m_pprot' for interface 'sys_apb'
2026-04-27 19:04:04 [TOPO INFO] lwnoc_topo.topo_core:   Created wrapper IO 'sys_apb_m_prdata' for interface 'sys_apb'
2026-04-27 19:04:04 [TOPO INFO] lwnoc_topo.topo_core:   Created wrapper IO 'sys_apb_m_pready' for interface 'sys_apb'
2026-04-27 19:04:04 [TOPO INFO] lwnoc_topo.topo_core:   Created wrapper IO 'sys_apb_m_psel' for interface 'sys_apb'
2026-04-27 19:04:04 [TOPO INFO] lwnoc_topo.topo_core:   Created wrapper IO 'sys_apb_m_pslverr' for interface 'sys_apb'
2026-04-27 19:04:04 [TOPO INFO] lwnoc_topo.topo_core:   Created wrapper IO 'sys_apb_m_pstrb' for interface 'sys_apb'
2026-04-27 19:04:04 [TOPO INFO] lwnoc_topo.topo_core:   Created wrapper IO 'sys_apb_m_pwdata' for interface 'sys_apb'
2026-04-27 19:04:04 [TOPO INFO] lwnoc_topo.topo_core:   Created wrapper IO 'sys_apb_m_pwrite' for interface 'sys_apb'
2026-04-27 19:04:04 [TOPO INFO] lwnoc_topo.topo_core:   Created wrapper IO 'dbg_data_dbg_data_in' for interface 'dbg_data'
2026-04-27 19:04:04 [TOPO INFO] lwnoc_topo.topo_core:   Created wrapper IO 'dbg_data_dbg_data_out' for interface 'dbg_data'
2026-04-27 19:04:04 [TOPO INFO] lwnoc_topo.topo_core:   Created wrapper IO 'dbg_timestamp_dbg_timestamp_in' for interface 'dbg_timestamp'
2026-04-27 19:04:04 [TOPO INFO] lwnoc_topo.topo_core:   Created wrapper IO 'dbg_timestamp_dbg_timestamp_out' for interface 'dbg_timestamp'
2026-04-27 19:04:04 [TOPO INFO] lwnoc_topo.topo_core:   Created wrapper IO 'sys_cti_event_sys_cti_event_in' for interface 'sys_cti_event'
2026-04-27 19:04:04 [TOPO INFO] lwnoc_topo.topo_core:   Created wrapper IO 'sys_cti_event_sys_cti_event_out' for interface 'sys_cti_event'
2026-04-27 19:04:04 [TOPO INFO] lwnoc_topo.topo_core:   Created wrapper IO 'noc_cti_event_noc_cti_event_in' for interface 'noc_cti_event'
2026-04-27 19:04:04 [TOPO INFO] lwnoc_topo.topo_core:   Created wrapper IO 'noc_cti_event_noc_cti_event_out' for interface 'noc_cti_event'
2026-04-27 19:04:04 [TOPO INFO] lwnoc_topo.topo_core:   Created wrapper IO 'sys_cti_channel_sys_cti_channel_in' for interface 'sys_cti_channel'
2026-04-27 19:04:04 [TOPO INFO] lwnoc_topo.topo_core:   Created wrapper IO 'sys_cti_channel_sys_cti_channel_out' for interface 'sys_cti_channel'
2026-04-27 19:04:04 [TOPO INFO] lwnoc_topo.topo_core:   Created wrapper IO 'noc_cti_channel_noc_cti_channel_in' for interface 'noc_cti_channel'
2026-04-27 19:04:04 [TOPO INFO] lwnoc_topo.topo_core:   Created wrapper IO 'noc_cti_channel_noc_cti_channel_out' for interface 'noc_cti_channel'
2026-04-27 19:04:04 [TOPO INFO] lwnoc_topo.topo_core:   Created wrapper IO 'dspss0_tniu_sys_async_req_porting_req_pld_sync' for interface 'dspss0_tniu_sys.async_req_porting'
2026-04-27 19:04:04 [TOPO INFO] lwnoc_topo.topo_core:   Created wrapper IO 'dspss0_tniu_sys_async_req_porting_req_rptr_async' for interface 'dspss0_tniu_sys.async_req_porting'
2026-04-27 19:04:04 [TOPO INFO] lwnoc_topo.topo_core:   Created wrapper IO 'dspss0_tniu_sys_async_req_porting_req_rptr_sync' for interface 'dspss0_tniu_sys.async_req_porting'
2026-04-27 19:04:04 [TOPO INFO] lwnoc_topo.topo_core:   Created wrapper IO 'dspss0_tniu_sys_async_req_porting_req_wptr_async' for interface 'dspss0_tniu_sys.async_req_porting'
2026-04-27 19:04:04 [TOPO INFO] lwnoc_topo.topo_core:   Created wrapper IO 'dspss0_tniu_sys_async_rsp_porting_rsp_pld_sync' for interface 'dspss0_tniu_sys.async_rsp_porting'
2026-04-27 19:04:04 [TOPO INFO] lwnoc_topo.topo_core:   Created wrapper IO 'dspss0_tniu_sys_async_rsp_porting_rsp_rptr_async' for interface 'dspss0_tniu_sys.async_rsp_porting'
2026-04-27 19:04:04 [TOPO INFO] lwnoc_topo.topo_core:   Created wrapper IO 'dspss0_tniu_sys_async_rsp_porting_rsp_rptr_sync' for interface 'dspss0_tniu_sys.async_rsp_porting'
2026-04-27 19:04:04 [TOPO INFO] lwnoc_topo.topo_core:   Created wrapper IO 'dspss0_tniu_sys_async_rsp_porting_rsp_wptr_async' for interface 'dspss0_tniu_sys.async_rsp_porting'
2026-04-27 19:04:04 [TOPO INFO] lwnoc_topo.topo_core:   Created wrapper IO 'dspss0_tniu_sys_apb_m_porting_m_paddr' for interface 'dspss0_tniu_sys.apb_m_porting'
2026-04-27 19:04:04 [TOPO INFO] lwnoc_topo.topo_core:   Created wrapper IO 'dspss0_tniu_sys_apb_m_porting_m_penable' for interface 'dspss0_tniu_sys.apb_m_porting'
2026-04-27 19:04:04 [TOPO INFO] lwnoc_topo.topo_core:   Created wrapper IO 'dspss0_tniu_sys_apb_m_porting_m_pprot' for interface 'dspss0_tniu_sys.apb_m_porting'
2026-04-27 19:04:04 [TOPO INFO] lwnoc_topo.topo_core:   Created wrapper IO 'dspss0_tniu_sys_apb_m_porting_m_prdata' for interface 'dspss0_tniu_sys.apb_m_porting'
2026-04-27 19:04:04 [TOPO INFO] lwnoc_topo.topo_core:   Created wrapper IO 'dspss0_tniu_sys_apb_m_porting_m_pready' for interface 'dspss0_tniu_sys.apb_m_porting'
2026-04-27 19:04:04 [TOPO INFO] lwnoc_topo.topo_core:   Created wrapper IO 'dspss0_tniu_sys_apb_m_porting_m_psel' for interface 'dspss0_tniu_sys.apb_m_porting'
2026-04-27 19:04:04 [TOPO INFO] lwnoc_topo.topo_core:   Created wrapper IO 'dspss0_tniu_sys_apb_m_porting_m_pslverr' for interface 'dspss0_tniu_sys.apb_m_porting'
2026-04-27 19:04:04 [TOPO INFO] lwnoc_topo.topo_core:   Created wrapper IO 'dspss0_tniu_sys_apb_m_porting_m_pstrb' for interface 'dspss0_tniu_sys.apb_m_porting'
2026-04-27 19:04:04 [TOPO INFO] lwnoc_topo.topo_core:   Created wrapper IO 'dspss0_tniu_sys_apb_m_porting_m_pwdata' for interface 'dspss0_tniu_sys.apb_m_porting'
2026-04-27 19:04:04 [TOPO INFO] lwnoc_topo.topo_core:   Created wrapper IO 'dspss0_tniu_sys_apb_m_porting_m_pwrite' for interface 'dspss0_tniu_sys.apb_m_porting'
2026-04-27 19:04:04 [TOPO INFO] lwnoc_topo.topo_core:   Created wrapper IO 'dspss0_tniu_sys_cti_event_porting_cti_event_in' for interface 'dspss0_tniu_sys.cti_event_porting'
2026-04-27 19:04:04 [TOPO INFO] lwnoc_topo.topo_core:   Created wrapper IO 'dspss0_tniu_sys_cti_event_porting_cti_event_in_ack' for interface 'dspss0_tniu_sys.cti_event_porting'
2026-04-27 19:04:04 [TOPO INFO] lwnoc_topo.topo_core:   Created wrapper IO 'dspss0_tniu_sys_cti_event_porting_cti_event_in_req' for interface 'dspss0_tniu_sys.cti_event_porting'
2026-04-27 19:04:04 [TOPO INFO] lwnoc_topo.topo_core:   Created wrapper IO 'dspss0_tniu_sys_cti_event_porting_cti_event_out' for interface 'dspss0_tniu_sys.cti_event_porting'
2026-04-27 19:04:04 [TOPO INFO] lwnoc_topo.topo_core:   Created wrapper IO 'dspss0_tniu_sys_cti_event_porting_cti_event_out_ack' for interface 'dspss0_tniu_sys.cti_event_porting'
2026-04-27 19:04:04 [TOPO INFO] lwnoc_topo.topo_core:   Created wrapper IO 'dspss0_tniu_sys_cti_event_porting_cti_event_out_req' for interface 'dspss0_tniu_sys.cti_event_porting'
2026-04-27 19:04:04 [TOPO INFO] lwnoc_topo.topo_core:   Created wrapper IO 'dspss0_tniu_sys_cti_channel_porting_cti_channel_in' for interface 'dspss0_tniu_sys.cti_channel_porting'
2026-04-27 19:04:04 [TOPO INFO] lwnoc_topo.topo_core:   Created wrapper IO 'dspss0_tniu_sys_cti_channel_porting_cti_channel_in_ack' for interface 'dspss0_tniu_sys.cti_channel_porting'
2026-04-27 19:04:04 [TOPO INFO] lwnoc_topo.topo_core:   Created wrapper IO 'dspss0_tniu_sys_cti_channel_porting_cti_channel_in_req' for interface 'dspss0_tniu_sys.cti_channel_porting'
2026-04-27 19:04:04 [TOPO INFO] lwnoc_topo.topo_core:   Created wrapper IO 'dspss0_tniu_sys_cti_channel_porting_cti_channel_out' for interface 'dspss0_tniu_sys.cti_channel_porting'
2026-04-27 19:04:04 [TOPO INFO] lwnoc_topo.topo_core:   Created wrapper IO 'dspss0_tniu_sys_cti_channel_porting_cti_channel_out_ack' for interface 'dspss0_tniu_sys.cti_channel_porting'
2026-04-27 19:04:04 [TOPO INFO] lwnoc_topo.topo_core:   Created wrapper IO 'dspss0_tniu_sys_cti_channel_porting_cti_channel_out_req' for interface 'dspss0_tniu_sys.cti_channel_porting'
2026-04-27 19:04:04 [TOPO INFO] lwnoc_topo.topo_core:   Created wrapper IO 'dspss0_tniu_sys_dbg_data_porting_dbg_data_in' for interface 'dspss0_tniu_sys.dbg_data_porting'
2026-04-27 19:04:04 [TOPO INFO] lwnoc_topo.topo_core:   Created wrapper IO 'dspss0_tniu_sys_dbg_data_porting_dbg_data_out' for interface 'dspss0_tniu_sys.dbg_data_porting'
2026-04-27 19:04:04 [TOPO INFO] lwnoc_topo.topo_core:   Created wrapper IO 'dspss0_tniu_sys_dbg_timestamp_porting_dbg_timestamp_in' for interface 'dspss0_tniu_sys.dbg_timestamp_porting'
2026-04-27 19:04:04 [TOPO INFO] lwnoc_topo.topo_core:   Created wrapper IO 'dspss0_tniu_sys_dbg_timestamp_porting_dbg_timestamp_out' for interface 'dspss0_tniu_sys.dbg_timestamp_porting'
2026-04-27 19:04:04 [TOPO INFO] lwnoc_topo.topo_core:   Created wrapper IO 'dspss0_tniu_top_timing_bus_porting_timing_bus1' for interface 'dspss0_tniu_top.timing_bus_porting'
2026-04-27 19:04:04 [TOPO INFO] lwnoc_topo.topo_core:   Created wrapper IO 'dspss0_tniu_top_timing_bus_porting_timing_bus2' for interface 'dspss0_tniu_top.timing_bus_porting'
2026-04-27 19:04:04 [TOPO INFO] lwnoc_topo.topo_core:   Created wrapper IO 'dspss0_tniu_top_timing_bus_porting_timing_bus3' for interface 'dspss0_tniu_top.timing_bus_porting'
2026-04-27 19:04:04 [TOPO INFO] lwnoc_topo.topo_core:   Created wrapper IO 'dspss0_tniu_top_dbg_en_porting_dbg_en' for interface 'dspss0_tniu_top.dbg_en_porting'
2026-04-27 19:04:04 [TOPO INFO] lwnoc_topo.topo_core: Completed UHDL build for wrapper 'dspss0_tniu'
2026-04-27 19:04:04 [TOPO INFO] lwnoc_topo.topo_core:   Instantiated subnode 'dspss0_tniu' in wrapper 'soc_sts_noc'
2026-04-27 19:04:04 [TOPO INFO] lwnoc_topo.topo_core: Building UHDL for wrapper 'dspss1_tniu' (2 subnodes, 25 interfaces)
2026-04-27 19:04:04 [TOPO INFO] lwnoc_topo.topo_core:   Instantiated subnode 'sys_side' in wrapper 'dspss1_tniu'
2026-04-27 19:04:04 [TOPO INFO] lwnoc_topo.topo_core:   Instantiated subnode 'top_side' in wrapper 'dspss1_tniu'
2026-04-27 19:04:04 [TOPO INFO] lwnoc_topo.topo_core:   Created wrapper IO 'clk_src' for interface 'clk_src'
2026-04-27 19:04:04 [TOPO INFO] lwnoc_topo.topo_core:   Created wrapper IO 'rstn_src' for interface 'rstn_src'
2026-04-27 19:04:04 [TOPO INFO] lwnoc_topo.topo_core:   Created wrapper IO 'clk_dst' for interface 'clk_dst'
2026-04-27 19:04:04 [TOPO INFO] lwnoc_topo.topo_core:   Created wrapper IO 'rstn_dst' for interface 'rstn_dst'
2026-04-27 19:04:04 [TOPO INFO] lwnoc_topo.topo_core:   Created wrapper IO 'clk_dbg_timer' for interface 'clk_dbg_timer'
2026-04-27 19:04:04 [TOPO INFO] lwnoc_topo.topo_core:   Created wrapper IO 'rstn_dbg_timer' for interface 'rstn_dbg_timer'
2026-04-27 19:04:04 [TOPO INFO] lwnoc_topo.topo_core:   Created wrapper IO 'req_in_req_pld' for interface 'req'
2026-04-27 19:04:04 [TOPO INFO] lwnoc_topo.topo_core:   Created wrapper IO 'req_in_req_rdy' for interface 'req'
2026-04-27 19:04:04 [TOPO INFO] lwnoc_topo.topo_core:   Created wrapper IO 'req_in_req_vld' for interface 'req'
2026-04-27 19:04:04 [TOPO INFO] lwnoc_topo.topo_core:   Created wrapper IO 'rsp_out_rsp_pld' for interface 'rsp'
2026-04-27 19:04:04 [TOPO INFO] lwnoc_topo.topo_core:   Created wrapper IO 'rsp_out_rsp_rdy' for interface 'rsp'
2026-04-27 19:04:04 [TOPO INFO] lwnoc_topo.topo_core:   Created wrapper IO 'rsp_out_rsp_vld' for interface 'rsp'
2026-04-27 19:04:04 [TOPO INFO] lwnoc_topo.topo_core:   Created wrapper IO 'pmc_apb_pmc_paddr' for interface 'pmc_apb'
2026-04-27 19:04:04 [TOPO INFO] lwnoc_topo.topo_core:   Created wrapper IO 'pmc_apb_pmc_penable' for interface 'pmc_apb'
2026-04-27 19:04:04 [TOPO INFO] lwnoc_topo.topo_core:   Created wrapper IO 'pmc_apb_pmc_pprot' for interface 'pmc_apb'
2026-04-27 19:04:04 [TOPO INFO] lwnoc_topo.topo_core:   Created wrapper IO 'pmc_apb_pmc_prdata' for interface 'pmc_apb'
2026-04-27 19:04:04 [TOPO INFO] lwnoc_topo.topo_core:   Created wrapper IO 'pmc_apb_pmc_pready' for interface 'pmc_apb'
2026-04-27 19:04:04 [TOPO INFO] lwnoc_topo.topo_core:   Created wrapper IO 'pmc_apb_pmc_psel' for interface 'pmc_apb'
2026-04-27 19:04:04 [TOPO INFO] lwnoc_topo.topo_core:   Created wrapper IO 'pmc_apb_pmc_pslverr' for interface 'pmc_apb'
2026-04-27 19:04:04 [TOPO INFO] lwnoc_topo.topo_core:   Created wrapper IO 'pmc_apb_pmc_pstrb' for interface 'pmc_apb'
2026-04-27 19:04:04 [TOPO INFO] lwnoc_topo.topo_core:   Created wrapper IO 'pmc_apb_pmc_pwdata' for interface 'pmc_apb'
2026-04-27 19:04:04 [TOPO INFO] lwnoc_topo.topo_core:   Created wrapper IO 'pmc_apb_pmc_pwrite' for interface 'pmc_apb'
2026-04-27 19:04:04 [TOPO INFO] lwnoc_topo.topo_core:   Created wrapper IO 'sys_apb_m_paddr' for interface 'sys_apb'
2026-04-27 19:04:04 [TOPO INFO] lwnoc_topo.topo_core:   Created wrapper IO 'sys_apb_m_penable' for interface 'sys_apb'
2026-04-27 19:04:04 [TOPO INFO] lwnoc_topo.topo_core:   Created wrapper IO 'sys_apb_m_pprot' for interface 'sys_apb'
2026-04-27 19:04:04 [TOPO INFO] lwnoc_topo.topo_core:   Created wrapper IO 'sys_apb_m_prdata' for interface 'sys_apb'
2026-04-27 19:04:04 [TOPO INFO] lwnoc_topo.topo_core:   Created wrapper IO 'sys_apb_m_pready' for interface 'sys_apb'
2026-04-27 19:04:04 [TOPO INFO] lwnoc_topo.topo_core:   Created wrapper IO 'sys_apb_m_psel' for interface 'sys_apb'
2026-04-27 19:04:04 [TOPO INFO] lwnoc_topo.topo_core:   Created wrapper IO 'sys_apb_m_pslverr' for interface 'sys_apb'
2026-04-27 19:04:04 [TOPO INFO] lwnoc_topo.topo_core:   Created wrapper IO 'sys_apb_m_pstrb' for interface 'sys_apb'
2026-04-27 19:04:04 [TOPO INFO] lwnoc_topo.topo_core:   Created wrapper IO 'sys_apb_m_pwdata' for interface 'sys_apb'
2026-04-27 19:04:04 [TOPO INFO] lwnoc_topo.topo_core:   Created wrapper IO 'sys_apb_m_pwrite' for interface 'sys_apb'
2026-04-27 19:04:04 [TOPO INFO] lwnoc_topo.topo_core:   Created wrapper IO 'dbg_data_dbg_data_in' for interface 'dbg_data'
2026-04-27 19:04:04 [TOPO INFO] lwnoc_topo.topo_core:   Created wrapper IO 'dbg_data_dbg_data_out' for interface 'dbg_data'
2026-04-27 19:04:04 [TOPO INFO] lwnoc_topo.topo_core:   Created wrapper IO 'dbg_timestamp_dbg_timestamp_in' for interface 'dbg_timestamp'
2026-04-27 19:04:04 [TOPO INFO] lwnoc_topo.topo_core:   Created wrapper IO 'dbg_timestamp_dbg_timestamp_out' for interface 'dbg_timestamp'
2026-04-27 19:04:04 [TOPO INFO] lwnoc_topo.topo_core:   Created wrapper IO 'sys_cti_event_sys_cti_event_in' for interface 'sys_cti_event'
2026-04-27 19:04:04 [TOPO INFO] lwnoc_topo.topo_core:   Created wrapper IO 'sys_cti_event_sys_cti_event_out' for interface 'sys_cti_event'
2026-04-27 19:04:04 [TOPO INFO] lwnoc_topo.topo_core:   Created wrapper IO 'noc_cti_event_noc_cti_event_in' for interface 'noc_cti_event'
2026-04-27 19:04:04 [TOPO INFO] lwnoc_topo.topo_core:   Created wrapper IO 'noc_cti_event_noc_cti_event_out' for interface 'noc_cti_event'
2026-04-27 19:04:04 [TOPO INFO] lwnoc_topo.topo_core:   Created wrapper IO 'sys_cti_channel_sys_cti_channel_in' for interface 'sys_cti_channel'
2026-04-27 19:04:04 [TOPO INFO] lwnoc_topo.topo_core:   Created wrapper IO 'sys_cti_channel_sys_cti_channel_out' for interface 'sys_cti_channel'
2026-04-27 19:04:04 [TOPO INFO] lwnoc_topo.topo_core:   Created wrapper IO 'noc_cti_channel_noc_cti_channel_in' for interface 'noc_cti_channel'
2026-04-27 19:04:04 [TOPO INFO] lwnoc_topo.topo_core:   Created wrapper IO 'noc_cti_channel_noc_cti_channel_out' for interface 'noc_cti_channel'
2026-04-27 19:04:04 [TOPO INFO] lwnoc_topo.topo_core:   Created wrapper IO 'dspss1_tniu_sys_async_req_porting_req_pld_sync' for interface 'dspss1_tniu_sys.async_req_porting'
2026-04-27 19:04:04 [TOPO INFO] lwnoc_topo.topo_core:   Created wrapper IO 'dspss1_tniu_sys_async_req_porting_req_rptr_async' for interface 'dspss1_tniu_sys.async_req_porting'
2026-04-27 19:04:04 [TOPO INFO] lwnoc_topo.topo_core:   Created wrapper IO 'dspss1_tniu_sys_async_req_porting_req_rptr_sync' for interface 'dspss1_tniu_sys.async_req_porting'
2026-04-27 19:04:04 [TOPO INFO] lwnoc_topo.topo_core:   Created wrapper IO 'dspss1_tniu_sys_async_req_porting_req_wptr_async' for interface 'dspss1_tniu_sys.async_req_porting'
2026-04-27 19:04:04 [TOPO INFO] lwnoc_topo.topo_core:   Created wrapper IO 'dspss1_tniu_sys_async_rsp_porting_rsp_pld_sync' for interface 'dspss1_tniu_sys.async_rsp_porting'
2026-04-27 19:04:04 [TOPO INFO] lwnoc_topo.topo_core:   Created wrapper IO 'dspss1_tniu_sys_async_rsp_porting_rsp_rptr_async' for interface 'dspss1_tniu_sys.async_rsp_porting'
2026-04-27 19:04:04 [TOPO INFO] lwnoc_topo.topo_core:   Created wrapper IO 'dspss1_tniu_sys_async_rsp_porting_rsp_rptr_sync' for interface 'dspss1_tniu_sys.async_rsp_porting'
2026-04-27 19:04:04 [TOPO INFO] lwnoc_topo.topo_core:   Created wrapper IO 'dspss1_tniu_sys_async_rsp_porting_rsp_wptr_async' for interface 'dspss1_tniu_sys.async_rsp_porting'
2026-04-27 19:04:04 [TOPO INFO] lwnoc_topo.topo_core:   Created wrapper IO 'dspss1_tniu_sys_apb_m_porting_m_paddr' for interface 'dspss1_tniu_sys.apb_m_porting'
2026-04-27 19:04:04 [TOPO INFO] lwnoc_topo.topo_core:   Created wrapper IO 'dspss1_tniu_sys_apb_m_porting_m_penable' for interface 'dspss1_tniu_sys.apb_m_porting'
2026-04-27 19:04:04 [TOPO INFO] lwnoc_topo.topo_core:   Created wrapper IO 'dspss1_tniu_sys_apb_m_porting_m_pprot' for interface 'dspss1_tniu_sys.apb_m_porting'
2026-04-27 19:04:04 [TOPO INFO] lwnoc_topo.topo_core:   Created wrapper IO 'dspss1_tniu_sys_apb_m_porting_m_prdata' for interface 'dspss1_tniu_sys.apb_m_porting'
2026-04-27 19:04:04 [TOPO INFO] lwnoc_topo.topo_core:   Created wrapper IO 'dspss1_tniu_sys_apb_m_porting_m_pready' for interface 'dspss1_tniu_sys.apb_m_porting'
2026-04-27 19:04:04 [TOPO INFO] lwnoc_topo.topo_core:   Created wrapper IO 'dspss1_tniu_sys_apb_m_porting_m_psel' for interface 'dspss1_tniu_sys.apb_m_porting'
2026-04-27 19:04:04 [TOPO INFO] lwnoc_topo.topo_core:   Created wrapper IO 'dspss1_tniu_sys_apb_m_porting_m_pslverr' for interface 'dspss1_tniu_sys.apb_m_porting'
2026-04-27 19:04:04 [TOPO INFO] lwnoc_topo.topo_core:   Created wrapper IO 'dspss1_tniu_sys_apb_m_porting_m_pstrb' for interface 'dspss1_tniu_sys.apb_m_porting'
2026-04-27 19:04:04 [TOPO INFO] lwnoc_topo.topo_core:   Created wrapper IO 'dspss1_tniu_sys_apb_m_porting_m_pwdata' for interface 'dspss1_tniu_sys.apb_m_porting'
2026-04-27 19:04:04 [TOPO INFO] lwnoc_topo.topo_core:   Created wrapper IO 'dspss1_tniu_sys_apb_m_porting_m_pwrite' for interface 'dspss1_tniu_sys.apb_m_porting'
2026-04-27 19:04:04 [TOPO INFO] lwnoc_topo.topo_core:   Created wrapper IO 'dspss1_tniu_sys_cti_event_porting_cti_event_in' for interface 'dspss1_tniu_sys.cti_event_porting'
2026-04-27 19:04:04 [TOPO INFO] lwnoc_topo.topo_core:   Created wrapper IO 'dspss1_tniu_sys_cti_event_porting_cti_event_in_ack' for interface 'dspss1_tniu_sys.cti_event_porting'
2026-04-27 19:04:04 [TOPO INFO] lwnoc_topo.topo_core:   Created wrapper IO 'dspss1_tniu_sys_cti_event_porting_cti_event_in_req' for interface 'dspss1_tniu_sys.cti_event_porting'
2026-04-27 19:04:04 [TOPO INFO] lwnoc_topo.topo_core:   Created wrapper IO 'dspss1_tniu_sys_cti_event_porting_cti_event_out' for interface 'dspss1_tniu_sys.cti_event_porting'
2026-04-27 19:04:04 [TOPO INFO] lwnoc_topo.topo_core:   Created wrapper IO 'dspss1_tniu_sys_cti_event_porting_cti_event_out_ack' for interface 'dspss1_tniu_sys.cti_event_porting'
2026-04-27 19:04:04 [TOPO INFO] lwnoc_topo.topo_core:   Created wrapper IO 'dspss1_tniu_sys_cti_event_porting_cti_event_out_req' for interface 'dspss1_tniu_sys.cti_event_porting'
2026-04-27 19:04:04 [TOPO INFO] lwnoc_topo.topo_core:   Created wrapper IO 'dspss1_tniu_sys_cti_channel_porting_cti_channel_in' for interface 'dspss1_tniu_sys.cti_channel_porting'
2026-04-27 19:04:04 [TOPO INFO] lwnoc_topo.topo_core:   Created wrapper IO 'dspss1_tniu_sys_cti_channel_porting_cti_channel_in_ack' for interface 'dspss1_tniu_sys.cti_channel_porting'
2026-04-27 19:04:04 [TOPO INFO] lwnoc_topo.topo_core:   Created wrapper IO 'dspss1_tniu_sys_cti_channel_porting_cti_channel_in_req' for interface 'dspss1_tniu_sys.cti_channel_porting'
2026-04-27 19:04:04 [TOPO INFO] lwnoc_topo.topo_core:   Created wrapper IO 'dspss1_tniu_sys_cti_channel_porting_cti_channel_out' for interface 'dspss1_tniu_sys.cti_channel_porting'
2026-04-27 19:04:04 [TOPO INFO] lwnoc_topo.topo_core:   Created wrapper IO 'dspss1_tniu_sys_cti_channel_porting_cti_channel_out_ack' for interface 'dspss1_tniu_sys.cti_channel_porting'
2026-04-27 19:04:04 [TOPO INFO] lwnoc_topo.topo_core:   Created wrapper IO 'dspss1_tniu_sys_cti_channel_porting_cti_channel_out_req' for interface 'dspss1_tniu_sys.cti_channel_porting'
2026-04-27 19:04:04 [TOPO INFO] lwnoc_topo.topo_core:   Created wrapper IO 'dspss1_tniu_sys_dbg_data_porting_dbg_data_in' for interface 'dspss1_tniu_sys.dbg_data_porting'
2026-04-27 19:04:04 [TOPO INFO] lwnoc_topo.topo_core:   Created wrapper IO 'dspss1_tniu_sys_dbg_data_porting_dbg_data_out' for interface 'dspss1_tniu_sys.dbg_data_porting'
2026-04-27 19:04:04 [TOPO INFO] lwnoc_topo.topo_core:   Created wrapper IO 'dspss1_tniu_sys_dbg_timestamp_porting_dbg_timestamp_in' for interface 'dspss1_tniu_sys.dbg_timestamp_porting'
2026-04-27 19:04:04 [TOPO INFO] lwnoc_topo.topo_core:   Created wrapper IO 'dspss1_tniu_sys_dbg_timestamp_porting_dbg_timestamp_out' for interface 'dspss1_tniu_sys.dbg_timestamp_porting'
2026-04-27 19:04:04 [TOPO INFO] lwnoc_topo.topo_core:   Created wrapper IO 'dspss1_tniu_top_timing_bus_porting_timing_bus1' for interface 'dspss1_tniu_top.timing_bus_porting'
2026-04-27 19:04:04 [TOPO INFO] lwnoc_topo.topo_core:   Created wrapper IO 'dspss1_tniu_top_timing_bus_porting_timing_bus2' for interface 'dspss1_tniu_top.timing_bus_porting'
2026-04-27 19:04:04 [TOPO INFO] lwnoc_topo.topo_core:   Created wrapper IO 'dspss1_tniu_top_timing_bus_porting_timing_bus3' for interface 'dspss1_tniu_top.timing_bus_porting'
2026-04-27 19:04:04 [TOPO INFO] lwnoc_topo.topo_core:   Created wrapper IO 'dspss1_tniu_top_dbg_en_porting_dbg_en' for interface 'dspss1_tniu_top.dbg_en_porting'
2026-04-27 19:04:04 [TOPO INFO] lwnoc_topo.topo_core: Completed UHDL build for wrapper 'dspss1_tniu'
2026-04-27 19:04:04 [TOPO INFO] lwnoc_topo.topo_core:   Instantiated subnode 'dspss1_tniu' in wrapper 'soc_sts_noc'
2026-04-27 19:04:04 [TOPO INFO] lwnoc_topo.topo_core: Building UHDL for wrapper 'dspss2_tniu' (2 subnodes, 25 interfaces)
2026-04-27 19:04:04 [TOPO INFO] lwnoc_topo.topo_core:   Instantiated subnode 'sys_side' in wrapper 'dspss2_tniu'
2026-04-27 19:04:04 [TOPO INFO] lwnoc_topo.topo_core:   Instantiated subnode 'top_side' in wrapper 'dspss2_tniu'
2026-04-27 19:04:04 [TOPO INFO] lwnoc_topo.topo_core:   Created wrapper IO 'clk_src' for interface 'clk_src'
2026-04-27 19:04:04 [TOPO INFO] lwnoc_topo.topo_core:   Created wrapper IO 'rstn_src' for interface 'rstn_src'
2026-04-27 19:04:04 [TOPO INFO] lwnoc_topo.topo_core:   Created wrapper IO 'clk_dst' for interface 'clk_dst'
2026-04-27 19:04:04 [TOPO INFO] lwnoc_topo.topo_core:   Created wrapper IO 'rstn_dst' for interface 'rstn_dst'
2026-04-27 19:04:05 [TOPO INFO] lwnoc_topo.topo_core:   Created wrapper IO 'clk_dbg_timer' for interface 'clk_dbg_timer'
2026-04-27 19:04:05 [TOPO INFO] lwnoc_topo.topo_core:   Created wrapper IO 'rstn_dbg_timer' for interface 'rstn_dbg_timer'
2026-04-27 19:04:05 [TOPO INFO] lwnoc_topo.topo_core:   Created wrapper IO 'req_in_req_pld' for interface 'req'
2026-04-27 19:04:05 [TOPO INFO] lwnoc_topo.topo_core:   Created wrapper IO 'req_in_req_rdy' for interface 'req'
2026-04-27 19:04:05 [TOPO INFO] lwnoc_topo.topo_core:   Created wrapper IO 'req_in_req_vld' for interface 'req'
2026-04-27 19:04:05 [TOPO INFO] lwnoc_topo.topo_core:   Created wrapper IO 'rsp_out_rsp_pld' for interface 'rsp'
2026-04-27 19:04:05 [TOPO INFO] lwnoc_topo.topo_core:   Created wrapper IO 'rsp_out_rsp_rdy' for interface 'rsp'
2026-04-27 19:04:05 [TOPO INFO] lwnoc_topo.topo_core:   Created wrapper IO 'rsp_out_rsp_vld' for interface 'rsp'
2026-04-27 19:04:05 [TOPO INFO] lwnoc_topo.topo_core:   Created wrapper IO 'pmc_apb_pmc_paddr' for interface 'pmc_apb'
2026-04-27 19:04:05 [TOPO INFO] lwnoc_topo.topo_core:   Created wrapper IO 'pmc_apb_pmc_penable' for interface 'pmc_apb'
2026-04-27 19:04:05 [TOPO INFO] lwnoc_topo.topo_core:   Created wrapper IO 'pmc_apb_pmc_pprot' for interface 'pmc_apb'
2026-04-27 19:04:05 [TOPO INFO] lwnoc_topo.topo_core:   Created wrapper IO 'pmc_apb_pmc_prdata' for interface 'pmc_apb'
2026-04-27 19:04:05 [TOPO INFO] lwnoc_topo.topo_core:   Created wrapper IO 'pmc_apb_pmc_pready' for interface 'pmc_apb'
2026-04-27 19:04:05 [TOPO INFO] lwnoc_topo.topo_core:   Created wrapper IO 'pmc_apb_pmc_psel' for interface 'pmc_apb'
2026-04-27 19:04:05 [TOPO INFO] lwnoc_topo.topo_core:   Created wrapper IO 'pmc_apb_pmc_pslverr' for interface 'pmc_apb'
2026-04-27 19:04:05 [TOPO INFO] lwnoc_topo.topo_core:   Created wrapper IO 'pmc_apb_pmc_pstrb' for interface 'pmc_apb'
2026-04-27 19:04:05 [TOPO INFO] lwnoc_topo.topo_core:   Created wrapper IO 'pmc_apb_pmc_pwdata' for interface 'pmc_apb'
2026-04-27 19:04:05 [TOPO INFO] lwnoc_topo.topo_core:   Created wrapper IO 'pmc_apb_pmc_pwrite' for interface 'pmc_apb'
2026-04-27 19:04:05 [TOPO INFO] lwnoc_topo.topo_core:   Created wrapper IO 'sys_apb_m_paddr' for interface 'sys_apb'
2026-04-27 19:04:05 [TOPO INFO] lwnoc_topo.topo_core:   Created wrapper IO 'sys_apb_m_penable' for interface 'sys_apb'
2026-04-27 19:04:05 [TOPO INFO] lwnoc_topo.topo_core:   Created wrapper IO 'sys_apb_m_pprot' for interface 'sys_apb'
2026-04-27 19:04:05 [TOPO INFO] lwnoc_topo.topo_core:   Created wrapper IO 'sys_apb_m_prdata' for interface 'sys_apb'
2026-04-27 19:04:05 [TOPO INFO] lwnoc_topo.topo_core:   Created wrapper IO 'sys_apb_m_pready' for interface 'sys_apb'
2026-04-27 19:04:05 [TOPO INFO] lwnoc_topo.topo_core:   Created wrapper IO 'sys_apb_m_psel' for interface 'sys_apb'
2026-04-27 19:04:05 [TOPO INFO] lwnoc_topo.topo_core:   Created wrapper IO 'sys_apb_m_pslverr' for interface 'sys_apb'
2026-04-27 19:04:05 [TOPO INFO] lwnoc_topo.topo_core:   Created wrapper IO 'sys_apb_m_pstrb' for interface 'sys_apb'
2026-04-27 19:04:05 [TOPO INFO] lwnoc_topo.topo_core:   Created wrapper IO 'sys_apb_m_pwdata' for interface 'sys_apb'
2026-04-27 19:04:05 [TOPO INFO] lwnoc_topo.topo_core:   Created wrapper IO 'sys_apb_m_pwrite' for interface 'sys_apb'
2026-04-27 19:04:05 [TOPO INFO] lwnoc_topo.topo_core:   Created wrapper IO 'dbg_data_dbg_data_in' for interface 'dbg_data'
2026-04-27 19:04:05 [TOPO INFO] lwnoc_topo.topo_core:   Created wrapper IO 'dbg_data_dbg_data_out' for interface 'dbg_data'
2026-04-27 19:04:05 [TOPO INFO] lwnoc_topo.topo_core:   Created wrapper IO 'dbg_timestamp_dbg_timestamp_in' for interface 'dbg_timestamp'
2026-04-27 19:04:05 [TOPO INFO] lwnoc_topo.topo_core:   Created wrapper IO 'dbg_timestamp_dbg_timestamp_out' for interface 'dbg_timestamp'
2026-04-27 19:04:05 [TOPO INFO] lwnoc_topo.topo_core:   Created wrapper IO 'sys_cti_event_sys_cti_event_in' for interface 'sys_cti_event'
2026-04-27 19:04:05 [TOPO INFO] lwnoc_topo.topo_core:   Created wrapper IO 'sys_cti_event_sys_cti_event_out' for interface 'sys_cti_event'
2026-04-27 19:04:05 [TOPO INFO] lwnoc_topo.topo_core:   Created wrapper IO 'noc_cti_event_noc_cti_event_in' for interface 'noc_cti_event'
2026-04-27 19:04:05 [TOPO INFO] lwnoc_topo.topo_core:   Created wrapper IO 'noc_cti_event_noc_cti_event_out' for interface 'noc_cti_event'
2026-04-27 19:04:05 [TOPO INFO] lwnoc_topo.topo_core:   Created wrapper IO 'sys_cti_channel_sys_cti_channel_in' for interface 'sys_cti_channel'
2026-04-27 19:04:05 [TOPO INFO] lwnoc_topo.topo_core:   Created wrapper IO 'sys_cti_channel_sys_cti_channel_out' for interface 'sys_cti_channel'
2026-04-27 19:04:05 [TOPO INFO] lwnoc_topo.topo_core:   Created wrapper IO 'noc_cti_channel_noc_cti_channel_in' for interface 'noc_cti_channel'
2026-04-27 19:04:05 [TOPO INFO] lwnoc_topo.topo_core:   Created wrapper IO 'noc_cti_channel_noc_cti_channel_out' for interface 'noc_cti_channel'
2026-04-27 19:04:05 [TOPO INFO] lwnoc_topo.topo_core:   Created wrapper IO 'dspss2_tniu_sys_async_req_porting_req_pld_sync' for interface 'dspss2_tniu_sys.async_req_porting'
2026-04-27 19:04:05 [TOPO INFO] lwnoc_topo.topo_core:   Created wrapper IO 'dspss2_tniu_sys_async_req_porting_req_rptr_async' for interface 'dspss2_tniu_sys.async_req_porting'
2026-04-27 19:04:05 [TOPO INFO] lwnoc_topo.topo_core:   Created wrapper IO 'dspss2_tniu_sys_async_req_porting_req_rptr_sync' for interface 'dspss2_tniu_sys.async_req_porting'
2026-04-27 19:04:05 [TOPO INFO] lwnoc_topo.topo_core:   Created wrapper IO 'dspss2_tniu_sys_async_req_porting_req_wptr_async' for interface 'dspss2_tniu_sys.async_req_porting'
2026-04-27 19:04:05 [TOPO INFO] lwnoc_topo.topo_core:   Created wrapper IO 'dspss2_tniu_sys_async_rsp_porting_rsp_pld_sync' for interface 'dspss2_tniu_sys.async_rsp_porting'
2026-04-27 19:04:05 [TOPO INFO] lwnoc_topo.topo_core:   Created wrapper IO 'dspss2_tniu_sys_async_rsp_porting_rsp_rptr_async' for interface 'dspss2_tniu_sys.async_rsp_porting'
2026-04-27 19:04:05 [TOPO INFO] lwnoc_topo.topo_core:   Created wrapper IO 'dspss2_tniu_sys_async_rsp_porting_rsp_rptr_sync' for interface 'dspss2_tniu_sys.async_rsp_porting'
2026-04-27 19:04:05 [TOPO INFO] lwnoc_topo.topo_core:   Created wrapper IO 'dspss2_tniu_sys_async_rsp_porting_rsp_wptr_async' for interface 'dspss2_tniu_sys.async_rsp_porting'
2026-04-27 19:04:05 [TOPO INFO] lwnoc_topo.topo_core:   Created wrapper IO 'dspss2_tniu_sys_apb_m_porting_m_paddr' for interface 'dspss2_tniu_sys.apb_m_porting'
2026-04-27 19:04:05 [TOPO INFO] lwnoc_topo.topo_core:   Created wrapper IO 'dspss2_tniu_sys_apb_m_porting_m_penable' for interface 'dspss2_tniu_sys.apb_m_porting'
2026-04-27 19:04:05 [TOPO INFO] lwnoc_topo.topo_core:   Created wrapper IO 'dspss2_tniu_sys_apb_m_porting_m_pprot' for interface 'dspss2_tniu_sys.apb_m_porting'
2026-04-27 19:04:05 [TOPO INFO] lwnoc_topo.topo_core:   Created wrapper IO 'dspss2_tniu_sys_apb_m_porting_m_prdata' for interface 'dspss2_tniu_sys.apb_m_porting'
2026-04-27 19:04:05 [TOPO INFO] lwnoc_topo.topo_core:   Created wrapper IO 'dspss2_tniu_sys_apb_m_porting_m_pready' for interface 'dspss2_tniu_sys.apb_m_porting'
2026-04-27 19:04:05 [TOPO INFO] lwnoc_topo.topo_core:   Created wrapper IO 'dspss2_tniu_sys_apb_m_porting_m_psel' for interface 'dspss2_tniu_sys.apb_m_porting'
2026-04-27 19:04:05 [TOPO INFO] lwnoc_topo.topo_core:   Created wrapper IO 'dspss2_tniu_sys_apb_m_porting_m_pslverr' for interface 'dspss2_tniu_sys.apb_m_porting'
2026-04-27 19:04:05 [TOPO INFO] lwnoc_topo.topo_core:   Created wrapper IO 'dspss2_tniu_sys_apb_m_porting_m_pstrb' for interface 'dspss2_tniu_sys.apb_m_porting'
2026-04-27 19:04:05 [TOPO INFO] lwnoc_topo.topo_core:   Created wrapper IO 'dspss2_tniu_sys_apb_m_porting_m_pwdata' for interface 'dspss2_tniu_sys.apb_m_porting'
2026-04-27 19:04:05 [TOPO INFO] lwnoc_topo.topo_core:   Created wrapper IO 'dspss2_tniu_sys_apb_m_porting_m_pwrite' for interface 'dspss2_tniu_sys.apb_m_porting'
2026-04-27 19:04:05 [TOPO INFO] lwnoc_topo.topo_core:   Created wrapper IO 'dspss2_tniu_sys_cti_event_porting_cti_event_in' for interface 'dspss2_tniu_sys.cti_event_porting'
2026-04-27 19:04:05 [TOPO INFO] lwnoc_topo.topo_core:   Created wrapper IO 'dspss2_tniu_sys_cti_event_porting_cti_event_in_ack' for interface 'dspss2_tniu_sys.cti_event_porting'
2026-04-27 19:04:05 [TOPO INFO] lwnoc_topo.topo_core:   Created wrapper IO 'dspss2_tniu_sys_cti_event_porting_cti_event_in_req' for interface 'dspss2_tniu_sys.cti_event_porting'
2026-04-27 19:04:05 [TOPO INFO] lwnoc_topo.topo_core:   Created wrapper IO 'dspss2_tniu_sys_cti_event_porting_cti_event_out' for interface 'dspss2_tniu_sys.cti_event_porting'
2026-04-27 19:04:05 [TOPO INFO] lwnoc_topo.topo_core:   Created wrapper IO 'dspss2_tniu_sys_cti_event_porting_cti_event_out_ack' for interface 'dspss2_tniu_sys.cti_event_porting'
2026-04-27 19:04:05 [TOPO INFO] lwnoc_topo.topo_core:   Created wrapper IO 'dspss2_tniu_sys_cti_event_porting_cti_event_out_req' for interface 'dspss2_tniu_sys.cti_event_porting'
2026-04-27 19:04:05 [TOPO INFO] lwnoc_topo.topo_core:   Created wrapper IO 'dspss2_tniu_sys_cti_channel_porting_cti_channel_in' for interface 'dspss2_tniu_sys.cti_channel_porting'
2026-04-27 19:04:05 [TOPO INFO] lwnoc_topo.topo_core:   Created wrapper IO 'dspss2_tniu_sys_cti_channel_porting_cti_channel_in_ack' for interface 'dspss2_tniu_sys.cti_channel_porting'
2026-04-27 19:04:05 [TOPO INFO] lwnoc_topo.topo_core:   Created wrapper IO 'dspss2_tniu_sys_cti_channel_porting_cti_channel_in_req' for interface 'dspss2_tniu_sys.cti_channel_porting'
2026-04-27 19:04:05 [TOPO INFO] lwnoc_topo.topo_core:   Created wrapper IO 'dspss2_tniu_sys_cti_channel_porting_cti_channel_out' for interface 'dspss2_tniu_sys.cti_channel_porting'
2026-04-27 19:04:05 [TOPO INFO] lwnoc_topo.topo_core:   Created wrapper IO 'dspss2_tniu_sys_cti_channel_porting_cti_channel_out_ack' for interface 'dspss2_tniu_sys.cti_channel_porting'
2026-04-27 19:04:05 [TOPO INFO] lwnoc_topo.topo_core:   Created wrapper IO 'dspss2_tniu_sys_cti_channel_porting_cti_channel_out_req' for interface 'dspss2_tniu_sys.cti_channel_porting'
2026-04-27 19:04:05 [TOPO INFO] lwnoc_topo.topo_core:   Created wrapper IO 'dspss2_tniu_sys_dbg_data_porting_dbg_data_in' for interface 'dspss2_tniu_sys.dbg_data_porting'
2026-04-27 19:04:05 [TOPO INFO] lwnoc_topo.topo_core:   Created wrapper IO 'dspss2_tniu_sys_dbg_data_porting_dbg_data_out' for interface 'dspss2_tniu_sys.dbg_data_porting'
2026-04-27 19:04:05 [TOPO INFO] lwnoc_topo.topo_core:   Created wrapper IO 'dspss2_tniu_sys_dbg_timestamp_porting_dbg_timestamp_in' for interface 'dspss2_tniu_sys.dbg_timestamp_porting'
2026-04-27 19:04:05 [TOPO INFO] lwnoc_topo.topo_core:   Created wrapper IO 'dspss2_tniu_sys_dbg_timestamp_porting_dbg_timestamp_out' for interface 'dspss2_tniu_sys.dbg_timestamp_porting'
2026-04-27 19:04:05 [TOPO INFO] lwnoc_topo.topo_core:   Created wrapper IO 'dspss2_tniu_top_timing_bus_porting_timing_bus1' for interface 'dspss2_tniu_top.timing_bus_porting'
2026-04-27 19:04:05 [TOPO INFO] lwnoc_topo.topo_core:   Created wrapper IO 'dspss2_tniu_top_timing_bus_porting_timing_bus2' for interface 'dspss2_tniu_top.timing_bus_porting'
2026-04-27 19:04:05 [TOPO INFO] lwnoc_topo.topo_core:   Created wrapper IO 'dspss2_tniu_top_timing_bus_porting_timing_bus3' for interface 'dspss2_tniu_top.timing_bus_porting'
2026-04-27 19:04:05 [TOPO INFO] lwnoc_topo.topo_core:   Created wrapper IO 'dspss2_tniu_top_dbg_en_porting_dbg_en' for interface 'dspss2_tniu_top.dbg_en_porting'
2026-04-27 19:04:05 [TOPO INFO] lwnoc_topo.topo_core: Completed UHDL build for wrapper 'dspss2_tniu'
2026-04-27 19:04:05 [TOPO INFO] lwnoc_topo.topo_core:   Instantiated subnode 'dspss2_tniu' in wrapper 'soc_sts_noc'
2026-04-27 19:04:05 [TOPO INFO] lwnoc_topo.topo_core: Building UHDL for wrapper 'dspss3_tniu' (2 subnodes, 25 interfaces)
2026-04-27 19:04:05 [TOPO INFO] lwnoc_topo.topo_core:   Instantiated subnode 'sys_side' in wrapper 'dspss3_tniu'
2026-04-27 19:04:05 [TOPO INFO] lwnoc_topo.topo_core:   Instantiated subnode 'top_side' in wrapper 'dspss3_tniu'
2026-04-27 19:04:05 [TOPO INFO] lwnoc_topo.topo_core:   Created wrapper IO 'clk_src' for interface 'clk_src'
2026-04-27 19:04:05 [TOPO INFO] lwnoc_topo.topo_core:   Created wrapper IO 'rstn_src' for interface 'rstn_src'
2026-04-27 19:04:05 [TOPO INFO] lwnoc_topo.topo_core:   Created wrapper IO 'clk_dst' for interface 'clk_dst'
2026-04-27 19:04:05 [TOPO INFO] lwnoc_topo.topo_core:   Created wrapper IO 'rstn_dst' for interface 'rstn_dst'
2026-04-27 19:04:05 [TOPO INFO] lwnoc_topo.topo_core:   Created wrapper IO 'clk_dbg_timer' for interface 'clk_dbg_timer'
2026-04-27 19:04:05 [TOPO INFO] lwnoc_topo.topo_core:   Created wrapper IO 'rstn_dbg_timer' for interface 'rstn_dbg_timer'
2026-04-27 19:04:05 [TOPO INFO] lwnoc_topo.topo_core:   Created wrapper IO 'req_in_req_pld' for interface 'req'
2026-04-27 19:04:05 [TOPO INFO] lwnoc_topo.topo_core:   Created wrapper IO 'req_in_req_rdy' for interface 'req'
2026-04-27 19:04:05 [TOPO INFO] lwnoc_topo.topo_core:   Created wrapper IO 'req_in_req_vld' for interface 'req'
2026-04-27 19:04:05 [TOPO INFO] lwnoc_topo.topo_core:   Created wrapper IO 'rsp_out_rsp_pld' for interface 'rsp'
2026-04-27 19:04:05 [TOPO INFO] lwnoc_topo.topo_core:   Created wrapper IO 'rsp_out_rsp_rdy' for interface 'rsp'
2026-04-27 19:04:05 [TOPO INFO] lwnoc_topo.topo_core:   Created wrapper IO 'rsp_out_rsp_vld' for interface 'rsp'
2026-04-27 19:04:05 [TOPO INFO] lwnoc_topo.topo_core:   Created wrapper IO 'pmc_apb_pmc_paddr' for interface 'pmc_apb'
2026-04-27 19:04:05 [TOPO INFO] lwnoc_topo.topo_core:   Created wrapper IO 'pmc_apb_pmc_penable' for interface 'pmc_apb'
2026-04-27 19:04:05 [TOPO INFO] lwnoc_topo.topo_core:   Created wrapper IO 'pmc_apb_pmc_pprot' for interface 'pmc_apb'
2026-04-27 19:04:05 [TOPO INFO] lwnoc_topo.topo_core:   Created wrapper IO 'pmc_apb_pmc_prdata' for interface 'pmc_apb'
2026-04-27 19:04:05 [TOPO INFO] lwnoc_topo.topo_core:   Created wrapper IO 'pmc_apb_pmc_pready' for interface 'pmc_apb'
2026-04-27 19:04:05 [TOPO INFO] lwnoc_topo.topo_core:   Created wrapper IO 'pmc_apb_pmc_psel' for interface 'pmc_apb'
2026-04-27 19:04:05 [TOPO INFO] lwnoc_topo.topo_core:   Created wrapper IO 'pmc_apb_pmc_pslverr' for interface 'pmc_apb'
2026-04-27 19:04:05 [TOPO INFO] lwnoc_topo.topo_core:   Created wrapper IO 'pmc_apb_pmc_pstrb' for interface 'pmc_apb'
2026-04-27 19:04:05 [TOPO INFO] lwnoc_topo.topo_core:   Created wrapper IO 'pmc_apb_pmc_pwdata' for interface 'pmc_apb'
2026-04-27 19:04:05 [TOPO INFO] lwnoc_topo.topo_core:   Created wrapper IO 'pmc_apb_pmc_pwrite' for interface 'pmc_apb'
2026-04-27 19:04:05 [TOPO INFO] lwnoc_topo.topo_core:   Created wrapper IO 'sys_apb_m_paddr' for interface 'sys_apb'
2026-04-27 19:04:05 [TOPO INFO] lwnoc_topo.topo_core:   Created wrapper IO 'sys_apb_m_penable' for interface 'sys_apb'
2026-04-27 19:04:05 [TOPO INFO] lwnoc_topo.topo_core:   Created wrapper IO 'sys_apb_m_pprot' for interface 'sys_apb'
2026-04-27 19:04:05 [TOPO INFO] lwnoc_topo.topo_core:   Created wrapper IO 'sys_apb_m_prdata' for interface 'sys_apb'
2026-04-27 19:04:05 [TOPO INFO] lwnoc_topo.topo_core:   Created wrapper IO 'sys_apb_m_pready' for interface 'sys_apb'
2026-04-27 19:04:05 [TOPO INFO] lwnoc_topo.topo_core:   Created wrapper IO 'sys_apb_m_psel' for interface 'sys_apb'
2026-04-27 19:04:05 [TOPO INFO] lwnoc_topo.topo_core:   Created wrapper IO 'sys_apb_m_pslverr' for interface 'sys_apb'
2026-04-27 19:04:05 [TOPO INFO] lwnoc_topo.topo_core:   Created wrapper IO 'sys_apb_m_pstrb' for interface 'sys_apb'
2026-04-27 19:04:05 [TOPO INFO] lwnoc_topo.topo_core:   Created wrapper IO 'sys_apb_m_pwdata' for interface 'sys_apb'
2026-04-27 19:04:05 [TOPO INFO] lwnoc_topo.topo_core:   Created wrapper IO 'sys_apb_m_pwrite' for interface 'sys_apb'
2026-04-27 19:04:05 [TOPO INFO] lwnoc_topo.topo_core:   Created wrapper IO 'dbg_data_dbg_data_in' for interface 'dbg_data'
2026-04-27 19:04:05 [TOPO INFO] lwnoc_topo.topo_core:   Created wrapper IO 'dbg_data_dbg_data_out' for interface 'dbg_data'
2026-04-27 19:04:05 [TOPO INFO] lwnoc_topo.topo_core:   Created wrapper IO 'dbg_timestamp_dbg_timestamp_in' for interface 'dbg_timestamp'
2026-04-27 19:04:05 [TOPO INFO] lwnoc_topo.topo_core:   Created wrapper IO 'dbg_timestamp_dbg_timestamp_out' for interface 'dbg_timestamp'
2026-04-27 19:04:05 [TOPO INFO] lwnoc_topo.topo_core:   Created wrapper IO 'sys_cti_event_sys_cti_event_in' for interface 'sys_cti_event'
2026-04-27 19:04:05 [TOPO INFO] lwnoc_topo.topo_core:   Created wrapper IO 'sys_cti_event_sys_cti_event_out' for interface 'sys_cti_event'
2026-04-27 19:04:05 [TOPO INFO] lwnoc_topo.topo_core:   Created wrapper IO 'noc_cti_event_noc_cti_event_in' for interface 'noc_cti_event'
2026-04-27 19:04:05 [TOPO INFO] lwnoc_topo.topo_core:   Created wrapper IO 'noc_cti_event_noc_cti_event_out' for interface 'noc_cti_event'
2026-04-27 19:04:05 [TOPO INFO] lwnoc_topo.topo_core:   Created wrapper IO 'sys_cti_channel_sys_cti_channel_in' for interface 'sys_cti_channel'
2026-04-27 19:04:05 [TOPO INFO] lwnoc_topo.topo_core:   Created wrapper IO 'sys_cti_channel_sys_cti_channel_out' for interface 'sys_cti_channel'
2026-04-27 19:04:05 [TOPO INFO] lwnoc_topo.topo_core:   Created wrapper IO 'noc_cti_channel_noc_cti_channel_in' for interface 'noc_cti_channel'
2026-04-27 19:04:05 [TOPO INFO] lwnoc_topo.topo_core:   Created wrapper IO 'noc_cti_channel_noc_cti_channel_out' for interface 'noc_cti_channel'
2026-04-27 19:04:05 [TOPO INFO] lwnoc_topo.topo_core:   Created wrapper IO 'dspss3_tniu_sys_async_req_porting_req_pld_sync' for interface 'dspss3_tniu_sys.async_req_porting'
2026-04-27 19:04:05 [TOPO INFO] lwnoc_topo.topo_core:   Created wrapper IO 'dspss3_tniu_sys_async_req_porting_req_rptr_async' for interface 'dspss3_tniu_sys.async_req_porting'
2026-04-27 19:04:05 [TOPO INFO] lwnoc_topo.topo_core:   Created wrapper IO 'dspss3_tniu_sys_async_req_porting_req_rptr_sync' for interface 'dspss3_tniu_sys.async_req_porting'
2026-04-27 19:04:05 [TOPO INFO] lwnoc_topo.topo_core:   Created wrapper IO 'dspss3_tniu_sys_async_req_porting_req_wptr_async' for interface 'dspss3_tniu_sys.async_req_porting'
2026-04-27 19:04:05 [TOPO INFO] lwnoc_topo.topo_core:   Created wrapper IO 'dspss3_tniu_sys_async_rsp_porting_rsp_pld_sync' for interface 'dspss3_tniu_sys.async_rsp_porting'
2026-04-27 19:04:05 [TOPO INFO] lwnoc_topo.topo_core:   Created wrapper IO 'dspss3_tniu_sys_async_rsp_porting_rsp_rptr_async' for interface 'dspss3_tniu_sys.async_rsp_porting'
2026-04-27 19:04:05 [TOPO INFO] lwnoc_topo.topo_core:   Created wrapper IO 'dspss3_tniu_sys_async_rsp_porting_rsp_rptr_sync' for interface 'dspss3_tniu_sys.async_rsp_porting'
2026-04-27 19:04:05 [TOPO INFO] lwnoc_topo.topo_core:   Created wrapper IO 'dspss3_tniu_sys_async_rsp_porting_rsp_wptr_async' for interface 'dspss3_tniu_sys.async_rsp_porting'
2026-04-27 19:04:05 [TOPO INFO] lwnoc_topo.topo_core:   Created wrapper IO 'dspss3_tniu_sys_apb_m_porting_m_paddr' for interface 'dspss3_tniu_sys.apb_m_porting'
2026-04-27 19:04:05 [TOPO INFO] lwnoc_topo.topo_core:   Created wrapper IO 'dspss3_tniu_sys_apb_m_porting_m_penable' for interface 'dspss3_tniu_sys.apb_m_porting'
2026-04-27 19:04:05 [TOPO INFO] lwnoc_topo.topo_core:   Created wrapper IO 'dspss3_tniu_sys_apb_m_porting_m_pprot' for interface 'dspss3_tniu_sys.apb_m_porting'
2026-04-27 19:04:05 [TOPO INFO] lwnoc_topo.topo_core:   Created wrapper IO 'dspss3_tniu_sys_apb_m_porting_m_prdata' for interface 'dspss3_tniu_sys.apb_m_porting'
2026-04-27 19:04:05 [TOPO INFO] lwnoc_topo.topo_core:   Created wrapper IO 'dspss3_tniu_sys_apb_m_porting_m_pready' for interface 'dspss3_tniu_sys.apb_m_porting'
2026-04-27 19:04:05 [TOPO INFO] lwnoc_topo.topo_core:   Created wrapper IO 'dspss3_tniu_sys_apb_m_porting_m_psel' for interface 'dspss3_tniu_sys.apb_m_porting'
2026-04-27 19:04:05 [TOPO INFO] lwnoc_topo.topo_core:   Created wrapper IO 'dspss3_tniu_sys_apb_m_porting_m_pslverr' for interface 'dspss3_tniu_sys.apb_m_porting'
2026-04-27 19:04:05 [TOPO INFO] lwnoc_topo.topo_core:   Created wrapper IO 'dspss3_tniu_sys_apb_m_porting_m_pstrb' for interface 'dspss3_tniu_sys.apb_m_porting'
2026-04-27 19:04:05 [TOPO INFO] lwnoc_topo.topo_core:   Created wrapper IO 'dspss3_tniu_sys_apb_m_porting_m_pwdata' for interface 'dspss3_tniu_sys.apb_m_porting'
2026-04-27 19:04:05 [TOPO INFO] lwnoc_topo.topo_core:   Created wrapper IO 'dspss3_tniu_sys_apb_m_porting_m_pwrite' for interface 'dspss3_tniu_sys.apb_m_porting'
2026-04-27 19:04:05 [TOPO INFO] lwnoc_topo.topo_core:   Created wrapper IO 'dspss3_tniu_sys_cti_event_porting_cti_event_in' for interface 'dspss3_tniu_sys.cti_event_porting'
2026-04-27 19:04:05 [TOPO INFO] lwnoc_topo.topo_core:   Created wrapper IO 'dspss3_tniu_sys_cti_event_porting_cti_event_in_ack' for interface 'dspss3_tniu_sys.cti_event_porting'
2026-04-27 19:04:05 [TOPO INFO] lwnoc_topo.topo_core:   Created wrapper IO 'dspss3_tniu_sys_cti_event_porting_cti_event_in_req' for interface 'dspss3_tniu_sys.cti_event_porting'
2026-04-27 19:04:05 [TOPO INFO] lwnoc_topo.topo_core:   Created wrapper IO 'dspss3_tniu_sys_cti_event_porting_cti_event_out' for interface 'dspss3_tniu_sys.cti_event_porting'
2026-04-27 19:04:05 [TOPO INFO] lwnoc_topo.topo_core:   Created wrapper IO 'dspss3_tniu_sys_cti_event_porting_cti_event_out_ack' for interface 'dspss3_tniu_sys.cti_event_porting'
2026-04-27 19:04:05 [TOPO INFO] lwnoc_topo.topo_core:   Created wrapper IO 'dspss3_tniu_sys_cti_event_porting_cti_event_out_req' for interface 'dspss3_tniu_sys.cti_event_porting'
2026-04-27 19:04:05 [TOPO INFO] lwnoc_topo.topo_core:   Created wrapper IO 'dspss3_tniu_sys_cti_channel_porting_cti_channel_in' for interface 'dspss3_tniu_sys.cti_channel_porting'
2026-04-27 19:04:05 [TOPO INFO] lwnoc_topo.topo_core:   Created wrapper IO 'dspss3_tniu_sys_cti_channel_porting_cti_channel_in_ack' for interface 'dspss3_tniu_sys.cti_channel_porting'
2026-04-27 19:04:05 [TOPO INFO] lwnoc_topo.topo_core:   Created wrapper IO 'dspss3_tniu_sys_cti_channel_porting_cti_channel_in_req' for interface 'dspss3_tniu_sys.cti_channel_porting'
2026-04-27 19:04:05 [TOPO INFO] lwnoc_topo.topo_core:   Created wrapper IO 'dspss3_tniu_sys_cti_channel_porting_cti_channel_out' for interface 'dspss3_tniu_sys.cti_channel_porting'
2026-04-27 19:04:05 [TOPO INFO] lwnoc_topo.topo_core:   Created wrapper IO 'dspss3_tniu_sys_cti_channel_porting_cti_channel_out_ack' for interface 'dspss3_tniu_sys.cti_channel_porting'
2026-04-27 19:04:05 [TOPO INFO] lwnoc_topo.topo_core:   Created wrapper IO 'dspss3_tniu_sys_cti_channel_porting_cti_channel_out_req' for interface 'dspss3_tniu_sys.cti_channel_porting'
2026-04-27 19:04:05 [TOPO INFO] lwnoc_topo.topo_core:   Created wrapper IO 'dspss3_tniu_sys_dbg_data_porting_dbg_data_in' for interface 'dspss3_tniu_sys.dbg_data_porting'
2026-04-27 19:04:05 [TOPO INFO] lwnoc_topo.topo_core:   Created wrapper IO 'dspss3_tniu_sys_dbg_data_porting_dbg_data_out' for interface 'dspss3_tniu_sys.dbg_data_porting'
2026-04-27 19:04:05 [TOPO INFO] lwnoc_topo.topo_core:   Created wrapper IO 'dspss3_tniu_sys_dbg_timestamp_porting_dbg_timestamp_in' for interface 'dspss3_tniu_sys.dbg_timestamp_porting'
2026-04-27 19:04:05 [TOPO INFO] lwnoc_topo.topo_core:   Created wrapper IO 'dspss3_tniu_sys_dbg_timestamp_porting_dbg_timestamp_out' for interface 'dspss3_tniu_sys.dbg_timestamp_porting'
2026-04-27 19:04:05 [TOPO INFO] lwnoc_topo.topo_core:   Created wrapper IO 'dspss3_tniu_top_timing_bus_porting_timing_bus1' for interface 'dspss3_tniu_top.timing_bus_porting'
2026-04-27 19:04:05 [TOPO INFO] lwnoc_topo.topo_core:   Created wrapper IO 'dspss3_tniu_top_timing_bus_porting_timing_bus2' for interface 'dspss3_tniu_top.timing_bus_porting'
2026-04-27 19:04:05 [TOPO INFO] lwnoc_topo.topo_core:   Created wrapper IO 'dspss3_tniu_top_timing_bus_porting_timing_bus3' for interface 'dspss3_tniu_top.timing_bus_porting'
2026-04-27 19:04:05 [TOPO INFO] lwnoc_topo.topo_core:   Created wrapper IO 'dspss3_tniu_top_dbg_en_porting_dbg_en' for interface 'dspss3_tniu_top.dbg_en_porting'
2026-04-27 19:04:05 [TOPO INFO] lwnoc_topo.topo_core: Completed UHDL build for wrapper 'dspss3_tniu'
2026-04-27 19:04:05 [TOPO INFO] lwnoc_topo.topo_core:   Instantiated subnode 'dspss3_tniu' in wrapper 'soc_sts_noc'
2026-04-27 19:04:05 [TOPO INFO] lwnoc_topo.topo_core: Building UHDL for wrapper 'dspss4_tniu' (2 subnodes, 25 interfaces)
2026-04-27 19:04:05 [TOPO INFO] lwnoc_topo.topo_core:   Instantiated subnode 'sys_side' in wrapper 'dspss4_tniu'
2026-04-27 19:04:05 [TOPO INFO] lwnoc_topo.topo_core:   Instantiated subnode 'top_side' in wrapper 'dspss4_tniu'
2026-04-27 19:04:05 [TOPO INFO] lwnoc_topo.topo_core:   Created wrapper IO 'clk_src' for interface 'clk_src'
2026-04-27 19:04:05 [TOPO INFO] lwnoc_topo.topo_core:   Created wrapper IO 'rstn_src' for interface 'rstn_src'
2026-04-27 19:04:05 [TOPO INFO] lwnoc_topo.topo_core:   Created wrapper IO 'clk_dst' for interface 'clk_dst'
2026-04-27 19:04:05 [TOPO INFO] lwnoc_topo.topo_core:   Created wrapper IO 'rstn_dst' for interface 'rstn_dst'
2026-04-27 19:04:05 [TOPO INFO] lwnoc_topo.topo_core:   Created wrapper IO 'clk_dbg_timer' for interface 'clk_dbg_timer'
2026-04-27 19:04:05 [TOPO INFO] lwnoc_topo.topo_core:   Created wrapper IO 'rstn_dbg_timer' for interface 'rstn_dbg_timer'
2026-04-27 19:04:05 [TOPO INFO] lwnoc_topo.topo_core:   Created wrapper IO 'req_in_req_pld' for interface 'req'
2026-04-27 19:04:05 [TOPO INFO] lwnoc_topo.topo_core:   Created wrapper IO 'req_in_req_rdy' for interface 'req'
2026-04-27 19:04:05 [TOPO INFO] lwnoc_topo.topo_core:   Created wrapper IO 'req_in_req_vld' for interface 'req'
2026-04-27 19:04:05 [TOPO INFO] lwnoc_topo.topo_core:   Created wrapper IO 'rsp_out_rsp_pld' for interface 'rsp'
2026-04-27 19:04:05 [TOPO INFO] lwnoc_topo.topo_core:   Created wrapper IO 'rsp_out_rsp_rdy' for interface 'rsp'
2026-04-27 19:04:05 [TOPO INFO] lwnoc_topo.topo_core:   Created wrapper IO 'rsp_out_rsp_vld' for interface 'rsp'
2026-04-27 19:04:05 [TOPO INFO] lwnoc_topo.topo_core:   Created wrapper IO 'pmc_apb_pmc_paddr' for interface 'pmc_apb'
2026-04-27 19:04:05 [TOPO INFO] lwnoc_topo.topo_core:   Created wrapper IO 'pmc_apb_pmc_penable' for interface 'pmc_apb'
2026-04-27 19:04:05 [TOPO INFO] lwnoc_topo.topo_core:   Created wrapper IO 'pmc_apb_pmc_pprot' for interface 'pmc_apb'
2026-04-27 19:04:05 [TOPO INFO] lwnoc_topo.topo_core:   Created wrapper IO 'pmc_apb_pmc_prdata' for interface 'pmc_apb'
2026-04-27 19:04:05 [TOPO INFO] lwnoc_topo.topo_core:   Created wrapper IO 'pmc_apb_pmc_pready' for interface 'pmc_apb'
2026-04-27 19:04:05 [TOPO INFO] lwnoc_topo.topo_core:   Created wrapper IO 'pmc_apb_pmc_psel' for interface 'pmc_apb'
2026-04-27 19:04:05 [TOPO INFO] lwnoc_topo.topo_core:   Created wrapper IO 'pmc_apb_pmc_pslverr' for interface 'pmc_apb'
2026-04-27 19:04:05 [TOPO INFO] lwnoc_topo.topo_core:   Created wrapper IO 'pmc_apb_pmc_pstrb' for interface 'pmc_apb'
2026-04-27 19:04:05 [TOPO INFO] lwnoc_topo.topo_core:   Created wrapper IO 'pmc_apb_pmc_pwdata' for interface 'pmc_apb'
2026-04-27 19:04:05 [TOPO INFO] lwnoc_topo.topo_core:   Created wrapper IO 'pmc_apb_pmc_pwrite' for interface 'pmc_apb'
2026-04-27 19:04:05 [TOPO INFO] lwnoc_topo.topo_core:   Created wrapper IO 'sys_apb_m_paddr' for interface 'sys_apb'
2026-04-27 19:04:05 [TOPO INFO] lwnoc_topo.topo_core:   Created wrapper IO 'sys_apb_m_penable' for interface 'sys_apb'
2026-04-27 19:04:05 [TOPO INFO] lwnoc_topo.topo_core:   Created wrapper IO 'sys_apb_m_pprot' for interface 'sys_apb'
2026-04-27 19:04:05 [TOPO INFO] lwnoc_topo.topo_core:   Created wrapper IO 'sys_apb_m_prdata' for interface 'sys_apb'
2026-04-27 19:04:05 [TOPO INFO] lwnoc_topo.topo_core:   Created wrapper IO 'sys_apb_m_pready' for interface 'sys_apb'
2026-04-27 19:04:05 [TOPO INFO] lwnoc_topo.topo_core:   Created wrapper IO 'sys_apb_m_psel' for interface 'sys_apb'
2026-04-27 19:04:05 [TOPO INFO] lwnoc_topo.topo_core:   Created wrapper IO 'sys_apb_m_pslverr' for interface 'sys_apb'
2026-04-27 19:04:05 [TOPO INFO] lwnoc_topo.topo_core:   Created wrapper IO 'sys_apb_m_pstrb' for interface 'sys_apb'
2026-04-27 19:04:05 [TOPO INFO] lwnoc_topo.topo_core:   Created wrapper IO 'sys_apb_m_pwdata' for interface 'sys_apb'
2026-04-27 19:04:05 [TOPO INFO] lwnoc_topo.topo_core:   Created wrapper IO 'sys_apb_m_pwrite' for interface 'sys_apb'
2026-04-27 19:04:05 [TOPO INFO] lwnoc_topo.topo_core:   Created wrapper IO 'dbg_data_dbg_data_in' for interface 'dbg_data'
2026-04-27 19:04:05 [TOPO INFO] lwnoc_topo.topo_core:   Created wrapper IO 'dbg_data_dbg_data_out' for interface 'dbg_data'
