2026-04-25 05:25:40 [TOPO INFO] lwnoc_topo.topo_core: Building UHDL for wrapper 'soc_sts_noc' (15 subnodes, 74 interfaces)
2026-04-25 05:25:40 [TOPO INFO] lwnoc_topo.topo_core:   Instantiated subnode 'aon_ss_iniu' in wrapper 'soc_sts_noc'
2026-04-25 05:25:40 [TOPO INFO] lwnoc_topo.topo_core:   Instantiated subnode 'dec0' in wrapper 'soc_sts_noc'
2026-04-25 05:25:40 [TOPO INFO] lwnoc_topo.topo_core:   Instantiated subnode 'dec1' in wrapper 'soc_sts_noc'
2026-04-25 05:25:40 [TOPO INFO] lwnoc_topo.topo_core:   Instantiated subnode 'dec2' in wrapper 'soc_sts_noc'
2026-04-25 05:25:40 [TOPO INFO] lwnoc_topo.topo_core:   Instantiated subnode 'dec2_ext' in wrapper 'soc_sts_noc'
2026-04-25 05:25:40 [TOPO INFO] lwnoc_topo.topo_core:   Instantiated subnode 'harden_dn_async_bridge_slv' in wrapper 'soc_sts_noc'
2026-04-25 05:25:40 [TOPO INFO] lwnoc_topo.topo_core:   Instantiated subnode 'harden_up_async_bridge_mst' in wrapper 'soc_sts_noc'
2026-04-25 05:25:40 [TOPO INFO] lwnoc_topo.topo_core: Building UHDL for wrapper 'vpu_ss_tniu' (2 subnodes, 16 interfaces)
2026-04-25 05:25:40 [TOPO INFO] lwnoc_topo.topo_core:   Instantiated subnode 'sys_side' in wrapper 'vpu_ss_tniu'
2026-04-25 05:25:40 [TOPO INFO] lwnoc_topo.topo_core:   Instantiated subnode 'top_side' in wrapper 'vpu_ss_tniu'
2026-04-25 05:25:40 [TOPO INFO] lwnoc_topo.topo_core:   Created wrapper IO 'clk_src_clk_src' for interface 'clk_src'
2026-04-25 05:25:40 [TOPO INFO] lwnoc_topo.topo_core:   Created wrapper IO 'rstn_src_rstn_src' for interface 'rstn_src'
2026-04-25 05:25:40 [TOPO INFO] lwnoc_topo.topo_core:   Created wrapper IO 'clk_dst_clk_dst' for interface 'clk_dst'
2026-04-25 05:25:40 [TOPO INFO] lwnoc_topo.topo_core:   Created wrapper IO 'rstn_dst_rstn_dst' for interface 'rstn_dst'
2026-04-25 05:25:40 [TOPO INFO] lwnoc_topo.topo_core:   Created wrapper IO 'clk_dbg_timer' for interface 'clk_dbg_timer'
2026-04-25 05:25:40 [TOPO INFO] lwnoc_topo.topo_core:   Created wrapper IO 'rstn_dbg_timer' for interface 'rstn_dbg_timer'
2026-04-25 05:25:40 [TOPO INFO] lwnoc_topo.topo_core:   Created wrapper IO 'req_in_req_pld' for interface 'req'
2026-04-25 05:25:40 [TOPO INFO] lwnoc_topo.topo_core:   Created wrapper IO 'req_in_req_rdy' for interface 'req'
2026-04-25 05:25:40 [TOPO INFO] lwnoc_topo.topo_core:   Created wrapper IO 'req_in_req_vld' for interface 'req'
2026-04-25 05:25:40 [TOPO INFO] lwnoc_topo.topo_core:   Created wrapper IO 'rsp_out_rsp_pld' for interface 'rsp'
2026-04-25 05:25:40 [TOPO INFO] lwnoc_topo.topo_core:   Created wrapper IO 'rsp_out_rsp_rdy' for interface 'rsp'
2026-04-25 05:25:40 [TOPO INFO] lwnoc_topo.topo_core:   Created wrapper IO 'rsp_out_rsp_vld' for interface 'rsp'
2026-04-25 05:25:40 [TOPO INFO] lwnoc_topo.topo_core:   Created wrapper IO 'pmc_apb_pmc_paddr' for interface 'pmc_apb'
2026-04-25 05:25:40 [TOPO INFO] lwnoc_topo.topo_core:   Created wrapper IO 'pmc_apb_pmc_penable' for interface 'pmc_apb'
2026-04-25 05:25:40 [TOPO INFO] lwnoc_topo.topo_core:   Created wrapper IO 'pmc_apb_pmc_pprot' for interface 'pmc_apb'
2026-04-25 05:25:40 [TOPO INFO] lwnoc_topo.topo_core:   Created wrapper IO 'pmc_apb_pmc_prdata' for interface 'pmc_apb'
2026-04-25 05:25:40 [TOPO INFO] lwnoc_topo.topo_core:   Created wrapper IO 'pmc_apb_pmc_pready' for interface 'pmc_apb'
2026-04-25 05:25:40 [TOPO INFO] lwnoc_topo.topo_core:   Created wrapper IO 'pmc_apb_pmc_psel' for interface 'pmc_apb'
2026-04-25 05:25:40 [TOPO INFO] lwnoc_topo.topo_core:   Created wrapper IO 'pmc_apb_pmc_pslverr' for interface 'pmc_apb'
2026-04-25 05:25:40 [TOPO INFO] lwnoc_topo.topo_core:   Created wrapper IO 'pmc_apb_pmc_pstrb' for interface 'pmc_apb'
2026-04-25 05:25:40 [TOPO INFO] lwnoc_topo.topo_core:   Created wrapper IO 'pmc_apb_pmc_pwdata' for interface 'pmc_apb'
2026-04-25 05:25:40 [TOPO INFO] lwnoc_topo.topo_core:   Created wrapper IO 'pmc_apb_pmc_pwrite' for interface 'pmc_apb'
2026-04-25 05:25:40 [TOPO INFO] lwnoc_topo.topo_core:   Created wrapper IO 'sys_apb_m_paddr' for interface 'sys_apb'
2026-04-25 05:25:40 [TOPO INFO] lwnoc_topo.topo_core:   Created wrapper IO 'sys_apb_m_penable' for interface 'sys_apb'
2026-04-25 05:25:40 [TOPO INFO] lwnoc_topo.topo_core:   Created wrapper IO 'sys_apb_m_pprot' for interface 'sys_apb'
2026-04-25 05:25:40 [TOPO INFO] lwnoc_topo.topo_core:   Created wrapper IO 'sys_apb_m_prdata' for interface 'sys_apb'
2026-04-25 05:25:40 [TOPO INFO] lwnoc_topo.topo_core:   Created wrapper IO 'sys_apb_m_pready' for interface 'sys_apb'
2026-04-25 05:25:40 [TOPO INFO] lwnoc_topo.topo_core:   Created wrapper IO 'sys_apb_m_psel' for interface 'sys_apb'
2026-04-25 05:25:40 [TOPO INFO] lwnoc_topo.topo_core:   Created wrapper IO 'sys_apb_m_pslverr' for interface 'sys_apb'
2026-04-25 05:25:40 [TOPO INFO] lwnoc_topo.topo_core:   Created wrapper IO 'sys_apb_m_pstrb' for interface 'sys_apb'
2026-04-25 05:25:40 [TOPO INFO] lwnoc_topo.topo_core:   Created wrapper IO 'sys_apb_m_pwdata' for interface 'sys_apb'
2026-04-25 05:25:40 [TOPO INFO] lwnoc_topo.topo_core:   Created wrapper IO 'sys_apb_m_pwrite' for interface 'sys_apb'
2026-04-25 05:25:40 [TOPO INFO] lwnoc_topo.topo_core:   Created wrapper IO 'dbg_data_dbg_data_in' for interface 'dbg_data'
2026-04-25 05:25:40 [TOPO INFO] lwnoc_topo.topo_core:   Created wrapper IO 'dbg_data_dbg_data_out' for interface 'dbg_data'
2026-04-25 05:25:40 [TOPO INFO] lwnoc_topo.topo_core:   Created wrapper IO 'dbg_timestamp_dbg_timestamp_in' for interface 'dbg_timestamp'
2026-04-25 05:25:40 [TOPO INFO] lwnoc_topo.topo_core:   Created wrapper IO 'dbg_timestamp_dbg_timestamp_out' for interface 'dbg_timestamp'
2026-04-25 05:25:40 [TOPO INFO] lwnoc_topo.topo_core:   Created wrapper IO 'sys_cti_event_sys_cti_event_in' for interface 'sys_cti_event'
2026-04-25 05:25:40 [TOPO INFO] lwnoc_topo.topo_core:   Created wrapper IO 'sys_cti_event_sys_cti_event_out' for interface 'sys_cti_event'
2026-04-25 05:25:40 [TOPO INFO] lwnoc_topo.topo_core:   Created wrapper IO 'noc_cti_event_noc_cti_event_in' for interface 'noc_cti_event'
2026-04-25 05:25:40 [TOPO INFO] lwnoc_topo.topo_core:   Created wrapper IO 'noc_cti_event_noc_cti_event_out' for interface 'noc_cti_event'
2026-04-25 05:25:40 [TOPO INFO] lwnoc_topo.topo_core:   Created wrapper IO 'sys_cti_channel_sys_cti_channel_in' for interface 'sys_cti_channel'
2026-04-25 05:25:40 [TOPO INFO] lwnoc_topo.topo_core:   Created wrapper IO 'sys_cti_channel_sys_cti_channel_out' for interface 'sys_cti_channel'
2026-04-25 05:25:40 [TOPO INFO] lwnoc_topo.topo_core:   Created wrapper IO 'noc_cti_channel_noc_cti_channel_in' for interface 'noc_cti_channel'
2026-04-25 05:25:40 [TOPO INFO] lwnoc_topo.topo_core:   Created wrapper IO 'noc_cti_channel_noc_cti_channel_out' for interface 'noc_cti_channel'
2026-04-25 05:25:40 [TOPO INFO] lwnoc_topo.topo_core: Completed UHDL build for wrapper 'vpu_ss_tniu'
2026-04-25 05:25:40 [TOPO INFO] lwnoc_topo.topo_core:   Instantiated subnode 'vpu_ss_tniu' in wrapper 'soc_sts_noc'
2026-04-25 05:25:40 [TOPO INFO] lwnoc_topo.topo_core: Building UHDL for wrapper 'camera_ss_tniu' (2 subnodes, 16 interfaces)
2026-04-25 05:25:40 [TOPO INFO] lwnoc_topo.topo_core:   Instantiated subnode 'sys_side' in wrapper 'camera_ss_tniu'
2026-04-25 05:25:40 [TOPO INFO] lwnoc_topo.topo_core:   Instantiated subnode 'top_side' in wrapper 'camera_ss_tniu'
2026-04-25 05:25:40 [TOPO INFO] lwnoc_topo.topo_core:   Created wrapper IO 'clk_src_clk_src' for interface 'clk_src'
2026-04-25 05:25:40 [TOPO INFO] lwnoc_topo.topo_core:   Created wrapper IO 'rstn_src_rstn_src' for interface 'rstn_src'
2026-04-25 05:25:40 [TOPO INFO] lwnoc_topo.topo_core:   Created wrapper IO 'clk_dst_clk_dst' for interface 'clk_dst'
2026-04-25 05:25:40 [TOPO INFO] lwnoc_topo.topo_core:   Created wrapper IO 'rstn_dst_rstn_dst' for interface 'rstn_dst'
2026-04-25 05:25:40 [TOPO INFO] lwnoc_topo.topo_core:   Created wrapper IO 'clk_dbg_timer' for interface 'clk_dbg_timer'
2026-04-25 05:25:40 [TOPO INFO] lwnoc_topo.topo_core:   Created wrapper IO 'rstn_dbg_timer' for interface 'rstn_dbg_timer'
2026-04-25 05:25:40 [TOPO INFO] lwnoc_topo.topo_core:   Created wrapper IO 'req_in_req_pld' for interface 'req'
2026-04-25 05:25:40 [TOPO INFO] lwnoc_topo.topo_core:   Created wrapper IO 'req_in_req_rdy' for interface 'req'
2026-04-25 05:25:40 [TOPO INFO] lwnoc_topo.topo_core:   Created wrapper IO 'req_in_req_vld' for interface 'req'
2026-04-25 05:25:40 [TOPO INFO] lwnoc_topo.topo_core:   Created wrapper IO 'rsp_out_rsp_pld' for interface 'rsp'
2026-04-25 05:25:40 [TOPO INFO] lwnoc_topo.topo_core:   Created wrapper IO 'rsp_out_rsp_rdy' for interface 'rsp'
2026-04-25 05:25:40 [TOPO INFO] lwnoc_topo.topo_core:   Created wrapper IO 'rsp_out_rsp_vld' for interface 'rsp'
2026-04-25 05:25:40 [TOPO INFO] lwnoc_topo.topo_core:   Created wrapper IO 'pmc_apb_pmc_paddr' for interface 'pmc_apb'
2026-04-25 05:25:40 [TOPO INFO] lwnoc_topo.topo_core:   Created wrapper IO 'pmc_apb_pmc_penable' for interface 'pmc_apb'
2026-04-25 05:25:40 [TOPO INFO] lwnoc_topo.topo_core:   Created wrapper IO 'pmc_apb_pmc_pprot' for interface 'pmc_apb'
2026-04-25 05:25:40 [TOPO INFO] lwnoc_topo.topo_core:   Created wrapper IO 'pmc_apb_pmc_prdata' for interface 'pmc_apb'
2026-04-25 05:25:40 [TOPO INFO] lwnoc_topo.topo_core:   Created wrapper IO 'pmc_apb_pmc_pready' for interface 'pmc_apb'
2026-04-25 05:25:40 [TOPO INFO] lwnoc_topo.topo_core:   Created wrapper IO 'pmc_apb_pmc_psel' for interface 'pmc_apb'
2026-04-25 05:25:40 [TOPO INFO] lwnoc_topo.topo_core:   Created wrapper IO 'pmc_apb_pmc_pslverr' for interface 'pmc_apb'
2026-04-25 05:25:40 [TOPO INFO] lwnoc_topo.topo_core:   Created wrapper IO 'pmc_apb_pmc_pstrb' for interface 'pmc_apb'
2026-04-25 05:25:40 [TOPO INFO] lwnoc_topo.topo_core:   Created wrapper IO 'pmc_apb_pmc_pwdata' for interface 'pmc_apb'
2026-04-25 05:25:40 [TOPO INFO] lwnoc_topo.topo_core:   Created wrapper IO 'pmc_apb_pmc_pwrite' for interface 'pmc_apb'
2026-04-25 05:25:40 [TOPO INFO] lwnoc_topo.topo_core:   Created wrapper IO 'sys_apb_m_paddr' for interface 'sys_apb'
2026-04-25 05:25:40 [TOPO INFO] lwnoc_topo.topo_core:   Created wrapper IO 'sys_apb_m_penable' for interface 'sys_apb'
2026-04-25 05:25:40 [TOPO INFO] lwnoc_topo.topo_core:   Created wrapper IO 'sys_apb_m_pprot' for interface 'sys_apb'
2026-04-25 05:25:40 [TOPO INFO] lwnoc_topo.topo_core:   Created wrapper IO 'sys_apb_m_prdata' for interface 'sys_apb'
2026-04-25 05:25:40 [TOPO INFO] lwnoc_topo.topo_core:   Created wrapper IO 'sys_apb_m_pready' for interface 'sys_apb'
2026-04-25 05:25:40 [TOPO INFO] lwnoc_topo.topo_core:   Created wrapper IO 'sys_apb_m_psel' for interface 'sys_apb'
2026-04-25 05:25:40 [TOPO INFO] lwnoc_topo.topo_core:   Created wrapper IO 'sys_apb_m_pslverr' for interface 'sys_apb'
2026-04-25 05:25:40 [TOPO INFO] lwnoc_topo.topo_core:   Created wrapper IO 'sys_apb_m_pstrb' for interface 'sys_apb'
2026-04-25 05:25:40 [TOPO INFO] lwnoc_topo.topo_core:   Created wrapper IO 'sys_apb_m_pwdata' for interface 'sys_apb'
2026-04-25 05:25:40 [TOPO INFO] lwnoc_topo.topo_core:   Created wrapper IO 'sys_apb_m_pwrite' for interface 'sys_apb'
2026-04-25 05:25:40 [TOPO INFO] lwnoc_topo.topo_core:   Created wrapper IO 'dbg_data_dbg_data_in' for interface 'dbg_data'
2026-04-25 05:25:40 [TOPO INFO] lwnoc_topo.topo_core:   Created wrapper IO 'dbg_data_dbg_data_out' for interface 'dbg_data'
2026-04-25 05:25:40 [TOPO INFO] lwnoc_topo.topo_core:   Created wrapper IO 'dbg_timestamp_dbg_timestamp_in' for interface 'dbg_timestamp'
2026-04-25 05:25:40 [TOPO INFO] lwnoc_topo.topo_core:   Created wrapper IO 'dbg_timestamp_dbg_timestamp_out' for interface 'dbg_timestamp'
2026-04-25 05:25:40 [TOPO INFO] lwnoc_topo.topo_core:   Created wrapper IO 'sys_cti_event_sys_cti_event_in' for interface 'sys_cti_event'
2026-04-25 05:25:40 [TOPO INFO] lwnoc_topo.topo_core:   Created wrapper IO 'sys_cti_event_sys_cti_event_out' for interface 'sys_cti_event'
2026-04-25 05:25:40 [TOPO INFO] lwnoc_topo.topo_core:   Created wrapper IO 'noc_cti_event_noc_cti_event_in' for interface 'noc_cti_event'
2026-04-25 05:25:40 [TOPO INFO] lwnoc_topo.topo_core:   Created wrapper IO 'noc_cti_event_noc_cti_event_out' for interface 'noc_cti_event'
2026-04-25 05:25:40 [TOPO INFO] lwnoc_topo.topo_core:   Created wrapper IO 'sys_cti_channel_sys_cti_channel_in' for interface 'sys_cti_channel'
2026-04-25 05:25:40 [TOPO INFO] lwnoc_topo.topo_core:   Created wrapper IO 'sys_cti_channel_sys_cti_channel_out' for interface 'sys_cti_channel'
2026-04-25 05:25:40 [TOPO INFO] lwnoc_topo.topo_core:   Created wrapper IO 'noc_cti_channel_noc_cti_channel_in' for interface 'noc_cti_channel'
2026-04-25 05:25:40 [TOPO INFO] lwnoc_topo.topo_core:   Created wrapper IO 'noc_cti_channel_noc_cti_channel_out' for interface 'noc_cti_channel'
2026-04-25 05:25:40 [TOPO INFO] lwnoc_topo.topo_core: Completed UHDL build for wrapper 'camera_ss_tniu'
2026-04-25 05:25:40 [TOPO INFO] lwnoc_topo.topo_core:   Instantiated subnode 'camera_ss_tniu' in wrapper 'soc_sts_noc'
2026-04-25 05:25:40 [TOPO INFO] lwnoc_topo.topo_core: Building UHDL for wrapper 'dspss0_tniu' (2 subnodes, 16 interfaces)
2026-04-25 05:25:40 [TOPO INFO] lwnoc_topo.topo_core:   Instantiated subnode 'sys_side' in wrapper 'dspss0_tniu'
2026-04-25 05:25:40 [TOPO INFO] lwnoc_topo.topo_core:   Instantiated subnode 'top_side' in wrapper 'dspss0_tniu'
2026-04-25 05:25:40 [TOPO INFO] lwnoc_topo.topo_core:   Created wrapper IO 'clk_src_clk_src' for interface 'clk_src'
2026-04-25 05:25:40 [TOPO INFO] lwnoc_topo.topo_core:   Created wrapper IO 'rstn_src_rstn_src' for interface 'rstn_src'
2026-04-25 05:25:40 [TOPO INFO] lwnoc_topo.topo_core:   Created wrapper IO 'clk_dst_clk_dst' for interface 'clk_dst'
2026-04-25 05:25:40 [TOPO INFO] lwnoc_topo.topo_core:   Created wrapper IO 'rstn_dst_rstn_dst' for interface 'rstn_dst'
2026-04-25 05:25:40 [TOPO INFO] lwnoc_topo.topo_core:   Created wrapper IO 'clk_dbg_timer' for interface 'clk_dbg_timer'
2026-04-25 05:25:40 [TOPO INFO] lwnoc_topo.topo_core:   Created wrapper IO 'rstn_dbg_timer' for interface 'rstn_dbg_timer'
2026-04-25 05:25:40 [TOPO INFO] lwnoc_topo.topo_core:   Created wrapper IO 'req_in_req_pld' for interface 'req'
2026-04-25 05:25:40 [TOPO INFO] lwnoc_topo.topo_core:   Created wrapper IO 'req_in_req_rdy' for interface 'req'
2026-04-25 05:25:40 [TOPO INFO] lwnoc_topo.topo_core:   Created wrapper IO 'req_in_req_vld' for interface 'req'
2026-04-25 05:25:40 [TOPO INFO] lwnoc_topo.topo_core:   Created wrapper IO 'rsp_out_rsp_pld' for interface 'rsp'
2026-04-25 05:25:40 [TOPO INFO] lwnoc_topo.topo_core:   Created wrapper IO 'rsp_out_rsp_rdy' for interface 'rsp'
2026-04-25 05:25:40 [TOPO INFO] lwnoc_topo.topo_core:   Created wrapper IO 'rsp_out_rsp_vld' for interface 'rsp'
2026-04-25 05:25:40 [TOPO INFO] lwnoc_topo.topo_core:   Created wrapper IO 'pmc_apb_pmc_paddr' for interface 'pmc_apb'
2026-04-25 05:25:40 [TOPO INFO] lwnoc_topo.topo_core:   Created wrapper IO 'pmc_apb_pmc_penable' for interface 'pmc_apb'
2026-04-25 05:25:40 [TOPO INFO] lwnoc_topo.topo_core:   Created wrapper IO 'pmc_apb_pmc_pprot' for interface 'pmc_apb'
2026-04-25 05:25:40 [TOPO INFO] lwnoc_topo.topo_core:   Created wrapper IO 'pmc_apb_pmc_prdata' for interface 'pmc_apb'
2026-04-25 05:25:40 [TOPO INFO] lwnoc_topo.topo_core:   Created wrapper IO 'pmc_apb_pmc_pready' for interface 'pmc_apb'
2026-04-25 05:25:40 [TOPO INFO] lwnoc_topo.topo_core:   Created wrapper IO 'pmc_apb_pmc_psel' for interface 'pmc_apb'
2026-04-25 05:25:40 [TOPO INFO] lwnoc_topo.topo_core:   Created wrapper IO 'pmc_apb_pmc_pslverr' for interface 'pmc_apb'
2026-04-25 05:25:40 [TOPO INFO] lwnoc_topo.topo_core:   Created wrapper IO 'pmc_apb_pmc_pstrb' for interface 'pmc_apb'
2026-04-25 05:25:40 [TOPO INFO] lwnoc_topo.topo_core:   Created wrapper IO 'pmc_apb_pmc_pwdata' for interface 'pmc_apb'
2026-04-25 05:25:40 [TOPO INFO] lwnoc_topo.topo_core:   Created wrapper IO 'pmc_apb_pmc_pwrite' for interface 'pmc_apb'
2026-04-25 05:25:40 [TOPO INFO] lwnoc_topo.topo_core:   Created wrapper IO 'sys_apb_m_paddr' for interface 'sys_apb'
2026-04-25 05:25:40 [TOPO INFO] lwnoc_topo.topo_core:   Created wrapper IO 'sys_apb_m_penable' for interface 'sys_apb'
2026-04-25 05:25:40 [TOPO INFO] lwnoc_topo.topo_core:   Created wrapper IO 'sys_apb_m_pprot' for interface 'sys_apb'
2026-04-25 05:25:40 [TOPO INFO] lwnoc_topo.topo_core:   Created wrapper IO 'sys_apb_m_prdata' for interface 'sys_apb'
2026-04-25 05:25:40 [TOPO INFO] lwnoc_topo.topo_core:   Created wrapper IO 'sys_apb_m_pready' for interface 'sys_apb'
2026-04-25 05:25:40 [TOPO INFO] lwnoc_topo.topo_core:   Created wrapper IO 'sys_apb_m_psel' for interface 'sys_apb'
2026-04-25 05:25:40 [TOPO INFO] lwnoc_topo.topo_core:   Created wrapper IO 'sys_apb_m_pslverr' for interface 'sys_apb'
2026-04-25 05:25:40 [TOPO INFO] lwnoc_topo.topo_core:   Created wrapper IO 'sys_apb_m_pstrb' for interface 'sys_apb'
2026-04-25 05:25:40 [TOPO INFO] lwnoc_topo.topo_core:   Created wrapper IO 'sys_apb_m_pwdata' for interface 'sys_apb'
2026-04-25 05:25:40 [TOPO INFO] lwnoc_topo.topo_core:   Created wrapper IO 'sys_apb_m_pwrite' for interface 'sys_apb'
2026-04-25 05:25:40 [TOPO INFO] lwnoc_topo.topo_core:   Created wrapper IO 'dbg_data_dbg_data_in' for interface 'dbg_data'
2026-04-25 05:25:40 [TOPO INFO] lwnoc_topo.topo_core:   Created wrapper IO 'dbg_data_dbg_data_out' for interface 'dbg_data'
2026-04-25 05:25:40 [TOPO INFO] lwnoc_topo.topo_core:   Created wrapper IO 'dbg_timestamp_dbg_timestamp_in' for interface 'dbg_timestamp'
2026-04-25 05:25:40 [TOPO INFO] lwnoc_topo.topo_core:   Created wrapper IO 'dbg_timestamp_dbg_timestamp_out' for interface 'dbg_timestamp'
2026-04-25 05:25:40 [TOPO INFO] lwnoc_topo.topo_core:   Created wrapper IO 'sys_cti_event_sys_cti_event_in' for interface 'sys_cti_event'
2026-04-25 05:25:40 [TOPO INFO] lwnoc_topo.topo_core:   Created wrapper IO 'sys_cti_event_sys_cti_event_out' for interface 'sys_cti_event'
2026-04-25 05:25:40 [TOPO INFO] lwnoc_topo.topo_core:   Created wrapper IO 'noc_cti_event_noc_cti_event_in' for interface 'noc_cti_event'
2026-04-25 05:25:40 [TOPO INFO] lwnoc_topo.topo_core:   Created wrapper IO 'noc_cti_event_noc_cti_event_out' for interface 'noc_cti_event'
2026-04-25 05:25:40 [TOPO INFO] lwnoc_topo.topo_core:   Created wrapper IO 'sys_cti_channel_sys_cti_channel_in' for interface 'sys_cti_channel'
2026-04-25 05:25:40 [TOPO INFO] lwnoc_topo.topo_core:   Created wrapper IO 'sys_cti_channel_sys_cti_channel_out' for interface 'sys_cti_channel'
2026-04-25 05:25:40 [TOPO INFO] lwnoc_topo.topo_core:   Created wrapper IO 'noc_cti_channel_noc_cti_channel_in' for interface 'noc_cti_channel'
2026-04-25 05:25:40 [TOPO INFO] lwnoc_topo.topo_core:   Created wrapper IO 'noc_cti_channel_noc_cti_channel_out' for interface 'noc_cti_channel'
2026-04-25 05:25:40 [TOPO INFO] lwnoc_topo.topo_core: Completed UHDL build for wrapper 'dspss0_tniu'
2026-04-25 05:25:40 [TOPO INFO] lwnoc_topo.topo_core:   Instantiated subnode 'dspss0_tniu' in wrapper 'soc_sts_noc'
2026-04-25 05:25:40 [TOPO INFO] lwnoc_topo.topo_core: Building UHDL for wrapper 'dspss1_tniu' (2 subnodes, 16 interfaces)
2026-04-25 05:25:40 [TOPO INFO] lwnoc_topo.topo_core:   Instantiated subnode 'sys_side' in wrapper 'dspss1_tniu'
2026-04-25 05:25:40 [TOPO INFO] lwnoc_topo.topo_core:   Instantiated subnode 'top_side' in wrapper 'dspss1_tniu'
2026-04-25 05:25:40 [TOPO INFO] lwnoc_topo.topo_core:   Created wrapper IO 'clk_src_clk_src' for interface 'clk_src'
2026-04-25 05:25:40 [TOPO INFO] lwnoc_topo.topo_core:   Created wrapper IO 'rstn_src_rstn_src' for interface 'rstn_src'
2026-04-25 05:25:40 [TOPO INFO] lwnoc_topo.topo_core:   Created wrapper IO 'clk_dst_clk_dst' for interface 'clk_dst'
2026-04-25 05:25:40 [TOPO INFO] lwnoc_topo.topo_core:   Created wrapper IO 'rstn_dst_rstn_dst' for interface 'rstn_dst'
2026-04-25 05:25:40 [TOPO INFO] lwnoc_topo.topo_core:   Created wrapper IO 'clk_dbg_timer' for interface 'clk_dbg_timer'
2026-04-25 05:25:40 [TOPO INFO] lwnoc_topo.topo_core:   Created wrapper IO 'rstn_dbg_timer' for interface 'rstn_dbg_timer'
2026-04-25 05:25:40 [TOPO INFO] lwnoc_topo.topo_core:   Created wrapper IO 'req_in_req_pld' for interface 'req'
2026-04-25 05:25:40 [TOPO INFO] lwnoc_topo.topo_core:   Created wrapper IO 'req_in_req_rdy' for interface 'req'
2026-04-25 05:25:40 [TOPO INFO] lwnoc_topo.topo_core:   Created wrapper IO 'req_in_req_vld' for interface 'req'
2026-04-25 05:25:40 [TOPO INFO] lwnoc_topo.topo_core:   Created wrapper IO 'rsp_out_rsp_pld' for interface 'rsp'
2026-04-25 05:25:40 [TOPO INFO] lwnoc_topo.topo_core:   Created wrapper IO 'rsp_out_rsp_rdy' for interface 'rsp'
2026-04-25 05:25:40 [TOPO INFO] lwnoc_topo.topo_core:   Created wrapper IO 'rsp_out_rsp_vld' for interface 'rsp'
2026-04-25 05:25:40 [TOPO INFO] lwnoc_topo.topo_core:   Created wrapper IO 'pmc_apb_pmc_paddr' for interface 'pmc_apb'
2026-04-25 05:25:40 [TOPO INFO] lwnoc_topo.topo_core:   Created wrapper IO 'pmc_apb_pmc_penable' for interface 'pmc_apb'
2026-04-25 05:25:40 [TOPO INFO] lwnoc_topo.topo_core:   Created wrapper IO 'pmc_apb_pmc_pprot' for interface 'pmc_apb'
2026-04-25 05:25:40 [TOPO INFO] lwnoc_topo.topo_core:   Created wrapper IO 'pmc_apb_pmc_prdata' for interface 'pmc_apb'
2026-04-25 05:25:40 [TOPO INFO] lwnoc_topo.topo_core:   Created wrapper IO 'pmc_apb_pmc_pready' for interface 'pmc_apb'
2026-04-25 05:25:40 [TOPO INFO] lwnoc_topo.topo_core:   Created wrapper IO 'pmc_apb_pmc_psel' for interface 'pmc_apb'
2026-04-25 05:25:40 [TOPO INFO] lwnoc_topo.topo_core:   Created wrapper IO 'pmc_apb_pmc_pslverr' for interface 'pmc_apb'
2026-04-25 05:25:40 [TOPO INFO] lwnoc_topo.topo_core:   Created wrapper IO 'pmc_apb_pmc_pstrb' for interface 'pmc_apb'
2026-04-25 05:25:40 [TOPO INFO] lwnoc_topo.topo_core:   Created wrapper IO 'pmc_apb_pmc_pwdata' for interface 'pmc_apb'
2026-04-25 05:25:40 [TOPO INFO] lwnoc_topo.topo_core:   Created wrapper IO 'pmc_apb_pmc_pwrite' for interface 'pmc_apb'
2026-04-25 05:25:40 [TOPO INFO] lwnoc_topo.topo_core:   Created wrapper IO 'sys_apb_m_paddr' for interface 'sys_apb'
2026-04-25 05:25:40 [TOPO INFO] lwnoc_topo.topo_core:   Created wrapper IO 'sys_apb_m_penable' for interface 'sys_apb'
2026-04-25 05:25:40 [TOPO INFO] lwnoc_topo.topo_core:   Created wrapper IO 'sys_apb_m_pprot' for interface 'sys_apb'
2026-04-25 05:25:40 [TOPO INFO] lwnoc_topo.topo_core:   Created wrapper IO 'sys_apb_m_prdata' for interface 'sys_apb'
2026-04-25 05:25:40 [TOPO INFO] lwnoc_topo.topo_core:   Created wrapper IO 'sys_apb_m_pready' for interface 'sys_apb'
2026-04-25 05:25:40 [TOPO INFO] lwnoc_topo.topo_core:   Created wrapper IO 'sys_apb_m_psel' for interface 'sys_apb'
2026-04-25 05:25:40 [TOPO INFO] lwnoc_topo.topo_core:   Created wrapper IO 'sys_apb_m_pslverr' for interface 'sys_apb'
2026-04-25 05:25:40 [TOPO INFO] lwnoc_topo.topo_core:   Created wrapper IO 'sys_apb_m_pstrb' for interface 'sys_apb'
2026-04-25 05:25:40 [TOPO INFO] lwnoc_topo.topo_core:   Created wrapper IO 'sys_apb_m_pwdata' for interface 'sys_apb'
2026-04-25 05:25:40 [TOPO INFO] lwnoc_topo.topo_core:   Created wrapper IO 'sys_apb_m_pwrite' for interface 'sys_apb'
2026-04-25 05:25:40 [TOPO INFO] lwnoc_topo.topo_core:   Created wrapper IO 'dbg_data_dbg_data_in' for interface 'dbg_data'
2026-04-25 05:25:40 [TOPO INFO] lwnoc_topo.topo_core:   Created wrapper IO 'dbg_data_dbg_data_out' for interface 'dbg_data'
2026-04-25 05:25:40 [TOPO INFO] lwnoc_topo.topo_core:   Created wrapper IO 'dbg_timestamp_dbg_timestamp_in' for interface 'dbg_timestamp'
2026-04-25 05:25:40 [TOPO INFO] lwnoc_topo.topo_core:   Created wrapper IO 'dbg_timestamp_dbg_timestamp_out' for interface 'dbg_timestamp'
2026-04-25 05:25:40 [TOPO INFO] lwnoc_topo.topo_core:   Created wrapper IO 'sys_cti_event_sys_cti_event_in' for interface 'sys_cti_event'
2026-04-25 05:25:40 [TOPO INFO] lwnoc_topo.topo_core:   Created wrapper IO 'sys_cti_event_sys_cti_event_out' for interface 'sys_cti_event'
2026-04-25 05:25:40 [TOPO INFO] lwnoc_topo.topo_core:   Created wrapper IO 'noc_cti_event_noc_cti_event_in' for interface 'noc_cti_event'
2026-04-25 05:25:40 [TOPO INFO] lwnoc_topo.topo_core:   Created wrapper IO 'noc_cti_event_noc_cti_event_out' for interface 'noc_cti_event'
2026-04-25 05:25:40 [TOPO INFO] lwnoc_topo.topo_core:   Created wrapper IO 'sys_cti_channel_sys_cti_channel_in' for interface 'sys_cti_channel'
2026-04-25 05:25:40 [TOPO INFO] lwnoc_topo.topo_core:   Created wrapper IO 'sys_cti_channel_sys_cti_channel_out' for interface 'sys_cti_channel'
2026-04-25 05:25:40 [TOPO INFO] lwnoc_topo.topo_core:   Created wrapper IO 'noc_cti_channel_noc_cti_channel_in' for interface 'noc_cti_channel'
2026-04-25 05:25:40 [TOPO INFO] lwnoc_topo.topo_core:   Created wrapper IO 'noc_cti_channel_noc_cti_channel_out' for interface 'noc_cti_channel'
2026-04-25 05:25:40 [TOPO INFO] lwnoc_topo.topo_core: Completed UHDL build for wrapper 'dspss1_tniu'
2026-04-25 05:25:40 [TOPO INFO] lwnoc_topo.topo_core:   Instantiated subnode 'dspss1_tniu' in wrapper 'soc_sts_noc'
2026-04-25 05:25:40 [TOPO INFO] lwnoc_topo.topo_core: Building UHDL for wrapper 'dspss2_tniu' (2 subnodes, 16 interfaces)
2026-04-25 05:25:40 [TOPO INFO] lwnoc_topo.topo_core:   Instantiated subnode 'sys_side' in wrapper 'dspss2_tniu'
2026-04-25 05:25:40 [TOPO INFO] lwnoc_topo.topo_core:   Instantiated subnode 'top_side' in wrapper 'dspss2_tniu'
2026-04-25 05:25:40 [TOPO INFO] lwnoc_topo.topo_core:   Created wrapper IO 'clk_src_clk_src' for interface 'clk_src'
2026-04-25 05:25:40 [TOPO INFO] lwnoc_topo.topo_core:   Created wrapper IO 'rstn_src_rstn_src' for interface 'rstn_src'
2026-04-25 05:25:40 [TOPO INFO] lwnoc_topo.topo_core:   Created wrapper IO 'clk_dst_clk_dst' for interface 'clk_dst'
2026-04-25 05:25:40 [TOPO INFO] lwnoc_topo.topo_core:   Created wrapper IO 'rstn_dst_rstn_dst' for interface 'rstn_dst'
2026-04-25 05:25:40 [TOPO INFO] lwnoc_topo.topo_core:   Created wrapper IO 'clk_dbg_timer' for interface 'clk_dbg_timer'
2026-04-25 05:25:40 [TOPO INFO] lwnoc_topo.topo_core:   Created wrapper IO 'rstn_dbg_timer' for interface 'rstn_dbg_timer'
2026-04-25 05:25:40 [TOPO INFO] lwnoc_topo.topo_core:   Created wrapper IO 'req_in_req_pld' for interface 'req'
2026-04-25 05:25:40 [TOPO INFO] lwnoc_topo.topo_core:   Created wrapper IO 'req_in_req_rdy' for interface 'req'
2026-04-25 05:25:40 [TOPO INFO] lwnoc_topo.topo_core:   Created wrapper IO 'req_in_req_vld' for interface 'req'
2026-04-25 05:25:40 [TOPO INFO] lwnoc_topo.topo_core:   Created wrapper IO 'rsp_out_rsp_pld' for interface 'rsp'
2026-04-25 05:25:40 [TOPO INFO] lwnoc_topo.topo_core:   Created wrapper IO 'rsp_out_rsp_rdy' for interface 'rsp'
2026-04-25 05:25:40 [TOPO INFO] lwnoc_topo.topo_core:   Created wrapper IO 'rsp_out_rsp_vld' for interface 'rsp'
2026-04-25 05:25:40 [TOPO INFO] lwnoc_topo.topo_core:   Created wrapper IO 'pmc_apb_pmc_paddr' for interface 'pmc_apb'
2026-04-25 05:25:40 [TOPO INFO] lwnoc_topo.topo_core:   Created wrapper IO 'pmc_apb_pmc_penable' for interface 'pmc_apb'
2026-04-25 05:25:40 [TOPO INFO] lwnoc_topo.topo_core:   Created wrapper IO 'pmc_apb_pmc_pprot' for interface 'pmc_apb'
2026-04-25 05:25:40 [TOPO INFO] lwnoc_topo.topo_core:   Created wrapper IO 'pmc_apb_pmc_prdata' for interface 'pmc_apb'
2026-04-25 05:25:40 [TOPO INFO] lwnoc_topo.topo_core:   Created wrapper IO 'pmc_apb_pmc_pready' for interface 'pmc_apb'
2026-04-25 05:25:40 [TOPO INFO] lwnoc_topo.topo_core:   Created wrapper IO 'pmc_apb_pmc_psel' for interface 'pmc_apb'
2026-04-25 05:25:40 [TOPO INFO] lwnoc_topo.topo_core:   Created wrapper IO 'pmc_apb_pmc_pslverr' for interface 'pmc_apb'
2026-04-25 05:25:40 [TOPO INFO] lwnoc_topo.topo_core:   Created wrapper IO 'pmc_apb_pmc_pstrb' for interface 'pmc_apb'
2026-04-25 05:25:40 [TOPO INFO] lwnoc_topo.topo_core:   Created wrapper IO 'pmc_apb_pmc_pwdata' for interface 'pmc_apb'
2026-04-25 05:25:40 [TOPO INFO] lwnoc_topo.topo_core:   Created wrapper IO 'pmc_apb_pmc_pwrite' for interface 'pmc_apb'
2026-04-25 05:25:40 [TOPO INFO] lwnoc_topo.topo_core:   Created wrapper IO 'sys_apb_m_paddr' for interface 'sys_apb'
2026-04-25 05:25:40 [TOPO INFO] lwnoc_topo.topo_core:   Created wrapper IO 'sys_apb_m_penable' for interface 'sys_apb'
2026-04-25 05:25:40 [TOPO INFO] lwnoc_topo.topo_core:   Created wrapper IO 'sys_apb_m_pprot' for interface 'sys_apb'
2026-04-25 05:25:40 [TOPO INFO] lwnoc_topo.topo_core:   Created wrapper IO 'sys_apb_m_prdata' for interface 'sys_apb'
2026-04-25 05:25:40 [TOPO INFO] lwnoc_topo.topo_core:   Created wrapper IO 'sys_apb_m_pready' for interface 'sys_apb'
2026-04-25 05:25:40 [TOPO INFO] lwnoc_topo.topo_core:   Created wrapper IO 'sys_apb_m_psel' for interface 'sys_apb'
2026-04-25 05:25:40 [TOPO INFO] lwnoc_topo.topo_core:   Created wrapper IO 'sys_apb_m_pslverr' for interface 'sys_apb'
2026-04-25 05:25:40 [TOPO INFO] lwnoc_topo.topo_core:   Created wrapper IO 'sys_apb_m_pstrb' for interface 'sys_apb'
2026-04-25 05:25:40 [TOPO INFO] lwnoc_topo.topo_core:   Created wrapper IO 'sys_apb_m_pwdata' for interface 'sys_apb'
2026-04-25 05:25:40 [TOPO INFO] lwnoc_topo.topo_core:   Created wrapper IO 'sys_apb_m_pwrite' for interface 'sys_apb'
2026-04-25 05:25:40 [TOPO INFO] lwnoc_topo.topo_core:   Created wrapper IO 'dbg_data_dbg_data_in' for interface 'dbg_data'
2026-04-25 05:25:40 [TOPO INFO] lwnoc_topo.topo_core:   Created wrapper IO 'dbg_data_dbg_data_out' for interface 'dbg_data'
2026-04-25 05:25:40 [TOPO INFO] lwnoc_topo.topo_core:   Created wrapper IO 'dbg_timestamp_dbg_timestamp_in' for interface 'dbg_timestamp'
2026-04-25 05:25:40 [TOPO INFO] lwnoc_topo.topo_core:   Created wrapper IO 'dbg_timestamp_dbg_timestamp_out' for interface 'dbg_timestamp'
2026-04-25 05:25:40 [TOPO INFO] lwnoc_topo.topo_core:   Created wrapper IO 'sys_cti_event_sys_cti_event_in' for interface 'sys_cti_event'
2026-04-25 05:25:40 [TOPO INFO] lwnoc_topo.topo_core:   Created wrapper IO 'sys_cti_event_sys_cti_event_out' for interface 'sys_cti_event'
2026-04-25 05:25:40 [TOPO INFO] lwnoc_topo.topo_core:   Created wrapper IO 'noc_cti_event_noc_cti_event_in' for interface 'noc_cti_event'
2026-04-25 05:25:40 [TOPO INFO] lwnoc_topo.topo_core:   Created wrapper IO 'noc_cti_event_noc_cti_event_out' for interface 'noc_cti_event'
2026-04-25 05:25:40 [TOPO INFO] lwnoc_topo.topo_core:   Created wrapper IO 'sys_cti_channel_sys_cti_channel_in' for interface 'sys_cti_channel'
2026-04-25 05:25:40 [TOPO INFO] lwnoc_topo.topo_core:   Created wrapper IO 'sys_cti_channel_sys_cti_channel_out' for interface 'sys_cti_channel'
2026-04-25 05:25:40 [TOPO INFO] lwnoc_topo.topo_core:   Created wrapper IO 'noc_cti_channel_noc_cti_channel_in' for interface 'noc_cti_channel'
2026-04-25 05:25:40 [TOPO INFO] lwnoc_topo.topo_core:   Created wrapper IO 'noc_cti_channel_noc_cti_channel_out' for interface 'noc_cti_channel'
2026-04-25 05:25:40 [TOPO INFO] lwnoc_topo.topo_core: Completed UHDL build for wrapper 'dspss2_tniu'
2026-04-25 05:25:40 [TOPO INFO] lwnoc_topo.topo_core:   Instantiated subnode 'dspss2_tniu' in wrapper 'soc_sts_noc'
2026-04-25 05:25:40 [TOPO INFO] lwnoc_topo.topo_core: Building UHDL for wrapper 'dspss3_tniu' (2 subnodes, 16 interfaces)
2026-04-25 05:25:40 [TOPO INFO] lwnoc_topo.topo_core:   Instantiated subnode 'sys_side' in wrapper 'dspss3_tniu'
2026-04-25 05:25:40 [TOPO INFO] lwnoc_topo.topo_core:   Instantiated subnode 'top_side' in wrapper 'dspss3_tniu'
2026-04-25 05:25:40 [TOPO INFO] lwnoc_topo.topo_core:   Created wrapper IO 'clk_src_clk_src' for interface 'clk_src'
2026-04-25 05:25:40 [TOPO INFO] lwnoc_topo.topo_core:   Created wrapper IO 'rstn_src_rstn_src' for interface 'rstn_src'
2026-04-25 05:25:40 [TOPO INFO] lwnoc_topo.topo_core:   Created wrapper IO 'clk_dst_clk_dst' for interface 'clk_dst'
2026-04-25 05:25:40 [TOPO INFO] lwnoc_topo.topo_core:   Created wrapper IO 'rstn_dst_rstn_dst' for interface 'rstn_dst'
2026-04-25 05:25:40 [TOPO INFO] lwnoc_topo.topo_core:   Created wrapper IO 'clk_dbg_timer' for interface 'clk_dbg_timer'
2026-04-25 05:25:40 [TOPO INFO] lwnoc_topo.topo_core:   Created wrapper IO 'rstn_dbg_timer' for interface 'rstn_dbg_timer'
2026-04-25 05:25:40 [TOPO INFO] lwnoc_topo.topo_core:   Created wrapper IO 'req_in_req_pld' for interface 'req'
2026-04-25 05:25:40 [TOPO INFO] lwnoc_topo.topo_core:   Created wrapper IO 'req_in_req_rdy' for interface 'req'
2026-04-25 05:25:40 [TOPO INFO] lwnoc_topo.topo_core:   Created wrapper IO 'req_in_req_vld' for interface 'req'
2026-04-25 05:25:40 [TOPO INFO] lwnoc_topo.topo_core:   Created wrapper IO 'rsp_out_rsp_pld' for interface 'rsp'
2026-04-25 05:25:40 [TOPO INFO] lwnoc_topo.topo_core:   Created wrapper IO 'rsp_out_rsp_rdy' for interface 'rsp'
2026-04-25 05:25:40 [TOPO INFO] lwnoc_topo.topo_core:   Created wrapper IO 'rsp_out_rsp_vld' for interface 'rsp'
2026-04-25 05:25:40 [TOPO INFO] lwnoc_topo.topo_core:   Created wrapper IO 'pmc_apb_pmc_paddr' for interface 'pmc_apb'
2026-04-25 05:25:40 [TOPO INFO] lwnoc_topo.topo_core:   Created wrapper IO 'pmc_apb_pmc_penable' for interface 'pmc_apb'
2026-04-25 05:25:40 [TOPO INFO] lwnoc_topo.topo_core:   Created wrapper IO 'pmc_apb_pmc_pprot' for interface 'pmc_apb'
2026-04-25 05:25:40 [TOPO INFO] lwnoc_topo.topo_core:   Created wrapper IO 'pmc_apb_pmc_prdata' for interface 'pmc_apb'
2026-04-25 05:25:40 [TOPO INFO] lwnoc_topo.topo_core:   Created wrapper IO 'pmc_apb_pmc_pready' for interface 'pmc_apb'
2026-04-25 05:25:40 [TOPO INFO] lwnoc_topo.topo_core:   Created wrapper IO 'pmc_apb_pmc_psel' for interface 'pmc_apb'
2026-04-25 05:25:40 [TOPO INFO] lwnoc_topo.topo_core:   Created wrapper IO 'pmc_apb_pmc_pslverr' for interface 'pmc_apb'
2026-04-25 05:25:40 [TOPO INFO] lwnoc_topo.topo_core:   Created wrapper IO 'pmc_apb_pmc_pstrb' for interface 'pmc_apb'
2026-04-25 05:25:40 [TOPO INFO] lwnoc_topo.topo_core:   Created wrapper IO 'pmc_apb_pmc_pwdata' for interface 'pmc_apb'
2026-04-25 05:25:40 [TOPO INFO] lwnoc_topo.topo_core:   Created wrapper IO 'pmc_apb_pmc_pwrite' for interface 'pmc_apb'
2026-04-25 05:25:40 [TOPO INFO] lwnoc_topo.topo_core:   Created wrapper IO 'sys_apb_m_paddr' for interface 'sys_apb'
2026-04-25 05:25:40 [TOPO INFO] lwnoc_topo.topo_core:   Created wrapper IO 'sys_apb_m_penable' for interface 'sys_apb'
2026-04-25 05:25:40 [TOPO INFO] lwnoc_topo.topo_core:   Created wrapper IO 'sys_apb_m_pprot' for interface 'sys_apb'
2026-04-25 05:25:40 [TOPO INFO] lwnoc_topo.topo_core:   Created wrapper IO 'sys_apb_m_prdata' for interface 'sys_apb'
2026-04-25 05:25:40 [TOPO INFO] lwnoc_topo.topo_core:   Created wrapper IO 'sys_apb_m_pready' for interface 'sys_apb'
2026-04-25 05:25:40 [TOPO INFO] lwnoc_topo.topo_core:   Created wrapper IO 'sys_apb_m_psel' for interface 'sys_apb'
2026-04-25 05:25:40 [TOPO INFO] lwnoc_topo.topo_core:   Created wrapper IO 'sys_apb_m_pslverr' for interface 'sys_apb'
2026-04-25 05:25:40 [TOPO INFO] lwnoc_topo.topo_core:   Created wrapper IO 'sys_apb_m_pstrb' for interface 'sys_apb'
2026-04-25 05:25:40 [TOPO INFO] lwnoc_topo.topo_core:   Created wrapper IO 'sys_apb_m_pwdata' for interface 'sys_apb'
2026-04-25 05:25:40 [TOPO INFO] lwnoc_topo.topo_core:   Created wrapper IO 'sys_apb_m_pwrite' for interface 'sys_apb'
2026-04-25 05:25:40 [TOPO INFO] lwnoc_topo.topo_core:   Created wrapper IO 'dbg_data_dbg_data_in' for interface 'dbg_data'
2026-04-25 05:25:40 [TOPO INFO] lwnoc_topo.topo_core:   Created wrapper IO 'dbg_data_dbg_data_out' for interface 'dbg_data'
2026-04-25 05:25:40 [TOPO INFO] lwnoc_topo.topo_core:   Created wrapper IO 'dbg_timestamp_dbg_timestamp_in' for interface 'dbg_timestamp'
2026-04-25 05:25:40 [TOPO INFO] lwnoc_topo.topo_core:   Created wrapper IO 'dbg_timestamp_dbg_timestamp_out' for interface 'dbg_timestamp'
2026-04-25 05:25:40 [TOPO INFO] lwnoc_topo.topo_core:   Created wrapper IO 'sys_cti_event_sys_cti_event_in' for interface 'sys_cti_event'
2026-04-25 05:25:40 [TOPO INFO] lwnoc_topo.topo_core:   Created wrapper IO 'sys_cti_event_sys_cti_event_out' for interface 'sys_cti_event'
2026-04-25 05:25:40 [TOPO INFO] lwnoc_topo.topo_core:   Created wrapper IO 'noc_cti_event_noc_cti_event_in' for interface 'noc_cti_event'
2026-04-25 05:25:40 [TOPO INFO] lwnoc_topo.topo_core:   Created wrapper IO 'noc_cti_event_noc_cti_event_out' for interface 'noc_cti_event'
2026-04-25 05:25:40 [TOPO INFO] lwnoc_topo.topo_core:   Created wrapper IO 'sys_cti_channel_sys_cti_channel_in' for interface 'sys_cti_channel'
2026-04-25 05:25:40 [TOPO INFO] lwnoc_topo.topo_core:   Created wrapper IO 'sys_cti_channel_sys_cti_channel_out' for interface 'sys_cti_channel'
2026-04-25 05:25:40 [TOPO INFO] lwnoc_topo.topo_core:   Created wrapper IO 'noc_cti_channel_noc_cti_channel_in' for interface 'noc_cti_channel'
2026-04-25 05:25:40 [TOPO INFO] lwnoc_topo.topo_core:   Created wrapper IO 'noc_cti_channel_noc_cti_channel_out' for interface 'noc_cti_channel'
2026-04-25 05:25:40 [TOPO INFO] lwnoc_topo.topo_core: Completed UHDL build for wrapper 'dspss3_tniu'
2026-04-25 05:25:40 [TOPO INFO] lwnoc_topo.topo_core:   Instantiated subnode 'dspss3_tniu' in wrapper 'soc_sts_noc'
2026-04-25 05:25:40 [TOPO INFO] lwnoc_topo.topo_core: Building UHDL for wrapper 'dspss4_tniu' (2 subnodes, 16 interfaces)
2026-04-25 05:25:40 [TOPO INFO] lwnoc_topo.topo_core:   Instantiated subnode 'sys_side' in wrapper 'dspss4_tniu'
2026-04-25 05:25:40 [TOPO INFO] lwnoc_topo.topo_core:   Instantiated subnode 'top_side' in wrapper 'dspss4_tniu'
2026-04-25 05:25:40 [TOPO INFO] lwnoc_topo.topo_core:   Created wrapper IO 'clk_src_clk_src' for interface 'clk_src'
2026-04-25 05:25:40 [TOPO INFO] lwnoc_topo.topo_core:   Created wrapper IO 'rstn_src_rstn_src' for interface 'rstn_src'
2026-04-25 05:25:40 [TOPO INFO] lwnoc_topo.topo_core:   Created wrapper IO 'clk_dst_clk_dst' for interface 'clk_dst'
2026-04-25 05:25:40 [TOPO INFO] lwnoc_topo.topo_core:   Created wrapper IO 'rstn_dst_rstn_dst' for interface 'rstn_dst'
2026-04-25 05:25:40 [TOPO INFO] lwnoc_topo.topo_core:   Created wrapper IO 'clk_dbg_timer' for interface 'clk_dbg_timer'
2026-04-25 05:25:40 [TOPO INFO] lwnoc_topo.topo_core:   Created wrapper IO 'rstn_dbg_timer' for interface 'rstn_dbg_timer'
2026-04-25 05:25:40 [TOPO INFO] lwnoc_topo.topo_core:   Created wrapper IO 'req_in_req_pld' for interface 'req'
2026-04-25 05:25:40 [TOPO INFO] lwnoc_topo.topo_core:   Created wrapper IO 'req_in_req_rdy' for interface 'req'
2026-04-25 05:25:40 [TOPO INFO] lwnoc_topo.topo_core:   Created wrapper IO 'req_in_req_vld' for interface 'req'
2026-04-25 05:25:40 [TOPO INFO] lwnoc_topo.topo_core:   Created wrapper IO 'rsp_out_rsp_pld' for interface 'rsp'
2026-04-25 05:25:40 [TOPO INFO] lwnoc_topo.topo_core:   Created wrapper IO 'rsp_out_rsp_rdy' for interface 'rsp'
2026-04-25 05:25:40 [TOPO INFO] lwnoc_topo.topo_core:   Created wrapper IO 'rsp_out_rsp_vld' for interface 'rsp'
2026-04-25 05:25:40 [TOPO INFO] lwnoc_topo.topo_core:   Created wrapper IO 'pmc_apb_pmc_paddr' for interface 'pmc_apb'
2026-04-25 05:25:40 [TOPO INFO] lwnoc_topo.topo_core:   Created wrapper IO 'pmc_apb_pmc_penable' for interface 'pmc_apb'
2026-04-25 05:25:40 [TOPO INFO] lwnoc_topo.topo_core:   Created wrapper IO 'pmc_apb_pmc_pprot' for interface 'pmc_apb'
2026-04-25 05:25:40 [TOPO INFO] lwnoc_topo.topo_core:   Created wrapper IO 'pmc_apb_pmc_prdata' for interface 'pmc_apb'
2026-04-25 05:25:40 [TOPO INFO] lwnoc_topo.topo_core:   Created wrapper IO 'pmc_apb_pmc_pready' for interface 'pmc_apb'
2026-04-25 05:25:40 [TOPO INFO] lwnoc_topo.topo_core:   Created wrapper IO 'pmc_apb_pmc_psel' for interface 'pmc_apb'
2026-04-25 05:25:40 [TOPO INFO] lwnoc_topo.topo_core:   Created wrapper IO 'pmc_apb_pmc_pslverr' for interface 'pmc_apb'
2026-04-25 05:25:40 [TOPO INFO] lwnoc_topo.topo_core:   Created wrapper IO 'pmc_apb_pmc_pstrb' for interface 'pmc_apb'
2026-04-25 05:25:40 [TOPO INFO] lwnoc_topo.topo_core:   Created wrapper IO 'pmc_apb_pmc_pwdata' for interface 'pmc_apb'
2026-04-25 05:25:40 [TOPO INFO] lwnoc_topo.topo_core:   Created wrapper IO 'pmc_apb_pmc_pwrite' for interface 'pmc_apb'
2026-04-25 05:25:40 [TOPO INFO] lwnoc_topo.topo_core:   Created wrapper IO 'sys_apb_m_paddr' for interface 'sys_apb'
2026-04-25 05:25:40 [TOPO INFO] lwnoc_topo.topo_core:   Created wrapper IO 'sys_apb_m_penable' for interface 'sys_apb'
2026-04-25 05:25:40 [TOPO INFO] lwnoc_topo.topo_core:   Created wrapper IO 'sys_apb_m_pprot' for interface 'sys_apb'
2026-04-25 05:25:40 [TOPO INFO] lwnoc_topo.topo_core:   Created wrapper IO 'sys_apb_m_prdata' for interface 'sys_apb'
2026-04-25 05:25:40 [TOPO INFO] lwnoc_topo.topo_core:   Created wrapper IO 'sys_apb_m_pready' for interface 'sys_apb'
2026-04-25 05:25:40 [TOPO INFO] lwnoc_topo.topo_core:   Created wrapper IO 'sys_apb_m_psel' for interface 'sys_apb'
2026-04-25 05:25:40 [TOPO INFO] lwnoc_topo.topo_core:   Created wrapper IO 'sys_apb_m_pslverr' for interface 'sys_apb'
2026-04-25 05:25:40 [TOPO INFO] lwnoc_topo.topo_core:   Created wrapper IO 'sys_apb_m_pstrb' for interface 'sys_apb'
2026-04-25 05:25:40 [TOPO INFO] lwnoc_topo.topo_core:   Created wrapper IO 'sys_apb_m_pwdata' for interface 'sys_apb'
2026-04-25 05:25:40 [TOPO INFO] lwnoc_topo.topo_core:   Created wrapper IO 'sys_apb_m_pwrite' for interface 'sys_apb'
2026-04-25 05:25:40 [TOPO INFO] lwnoc_topo.topo_core:   Created wrapper IO 'dbg_data_dbg_data_in' for interface 'dbg_data'
2026-04-25 05:25:40 [TOPO INFO] lwnoc_topo.topo_core:   Created wrapper IO 'dbg_data_dbg_data_out' for interface 'dbg_data'
2026-04-25 05:25:40 [TOPO INFO] lwnoc_topo.topo_core:   Created wrapper IO 'dbg_timestamp_dbg_timestamp_in' for interface 'dbg_timestamp'
2026-04-25 05:25:40 [TOPO INFO] lwnoc_topo.topo_core:   Created wrapper IO 'dbg_timestamp_dbg_timestamp_out' for interface 'dbg_timestamp'
2026-04-25 05:25:40 [TOPO INFO] lwnoc_topo.topo_core:   Created wrapper IO 'sys_cti_event_sys_cti_event_in' for interface 'sys_cti_event'
2026-04-25 05:25:40 [TOPO INFO] lwnoc_topo.topo_core:   Created wrapper IO 'sys_cti_event_sys_cti_event_out' for interface 'sys_cti_event'
2026-04-25 05:25:40 [TOPO INFO] lwnoc_topo.topo_core:   Created wrapper IO 'noc_cti_event_noc_cti_event_in' for interface 'noc_cti_event'
2026-04-25 05:25:40 [TOPO INFO] lwnoc_topo.topo_core:   Created wrapper IO 'noc_cti_event_noc_cti_event_out' for interface 'noc_cti_event'
2026-04-25 05:25:40 [TOPO INFO] lwnoc_topo.topo_core:   Created wrapper IO 'sys_cti_channel_sys_cti_channel_in' for interface 'sys_cti_channel'
2026-04-25 05:25:40 [TOPO INFO] lwnoc_topo.topo_core:   Created wrapper IO 'sys_cti_channel_sys_cti_channel_out' for interface 'sys_cti_channel'
2026-04-25 05:25:40 [TOPO INFO] lwnoc_topo.topo_core:   Created wrapper IO 'noc_cti_channel_noc_cti_channel_in' for interface 'noc_cti_channel'
2026-04-25 05:25:40 [TOPO INFO] lwnoc_topo.topo_core:   Created wrapper IO 'noc_cti_channel_noc_cti_channel_out' for interface 'noc_cti_channel'
2026-04-25 05:25:40 [TOPO INFO] lwnoc_topo.topo_core: Completed UHDL build for wrapper 'dspss4_tniu'
2026-04-25 05:25:40 [TOPO INFO] lwnoc_topo.topo_core:   Instantiated subnode 'dspss4_tniu' in wrapper 'soc_sts_noc'
2026-04-25 05:25:40 [TOPO INFO] lwnoc_topo.topo_core: Building UHDL for wrapper 'dspss5_tniu' (2 subnodes, 16 interfaces)
2026-04-25 05:25:40 [TOPO INFO] lwnoc_topo.topo_core:   Instantiated subnode 'sys_side' in wrapper 'dspss5_tniu'
2026-04-25 05:25:40 [TOPO INFO] lwnoc_topo.topo_core:   Instantiated subnode 'top_side' in wrapper 'dspss5_tniu'
2026-04-25 05:25:40 [TOPO INFO] lwnoc_topo.topo_core:   Created wrapper IO 'clk_src_clk_src' for interface 'clk_src'
2026-04-25 05:25:40 [TOPO INFO] lwnoc_topo.topo_core:   Created wrapper IO 'rstn_src_rstn_src' for interface 'rstn_src'
2026-04-25 05:25:40 [TOPO INFO] lwnoc_topo.topo_core:   Created wrapper IO 'clk_dst_clk_dst' for interface 'clk_dst'
2026-04-25 05:25:40 [TOPO INFO] lwnoc_topo.topo_core:   Created wrapper IO 'rstn_dst_rstn_dst' for interface 'rstn_dst'
2026-04-25 05:25:40 [TOPO INFO] lwnoc_topo.topo_core:   Created wrapper IO 'clk_dbg_timer' for interface 'clk_dbg_timer'
2026-04-25 05:25:40 [TOPO INFO] lwnoc_topo.topo_core:   Created wrapper IO 'rstn_dbg_timer' for interface 'rstn_dbg_timer'
2026-04-25 05:25:40 [TOPO INFO] lwnoc_topo.topo_core:   Created wrapper IO 'req_in_req_pld' for interface 'req'
2026-04-25 05:25:40 [TOPO INFO] lwnoc_topo.topo_core:   Created wrapper IO 'req_in_req_rdy' for interface 'req'
2026-04-25 05:25:40 [TOPO INFO] lwnoc_topo.topo_core:   Created wrapper IO 'req_in_req_vld' for interface 'req'
2026-04-25 05:25:40 [TOPO INFO] lwnoc_topo.topo_core:   Created wrapper IO 'rsp_out_rsp_pld' for interface 'rsp'
2026-04-25 05:25:40 [TOPO INFO] lwnoc_topo.topo_core:   Created wrapper IO 'rsp_out_rsp_rdy' for interface 'rsp'
2026-04-25 05:25:40 [TOPO INFO] lwnoc_topo.topo_core:   Created wrapper IO 'rsp_out_rsp_vld' for interface 'rsp'
2026-04-25 05:25:40 [TOPO INFO] lwnoc_topo.topo_core:   Created wrapper IO 'pmc_apb_pmc_paddr' for interface 'pmc_apb'
2026-04-25 05:25:40 [TOPO INFO] lwnoc_topo.topo_core:   Created wrapper IO 'pmc_apb_pmc_penable' for interface 'pmc_apb'
2026-04-25 05:25:40 [TOPO INFO] lwnoc_topo.topo_core:   Created wrapper IO 'pmc_apb_pmc_pprot' for interface 'pmc_apb'
2026-04-25 05:25:40 [TOPO INFO] lwnoc_topo.topo_core:   Created wrapper IO 'pmc_apb_pmc_prdata' for interface 'pmc_apb'
2026-04-25 05:25:40 [TOPO INFO] lwnoc_topo.topo_core:   Created wrapper IO 'pmc_apb_pmc_pready' for interface 'pmc_apb'
2026-04-25 05:25:40 [TOPO INFO] lwnoc_topo.topo_core:   Created wrapper IO 'pmc_apb_pmc_psel' for interface 'pmc_apb'
2026-04-25 05:25:40 [TOPO INFO] lwnoc_topo.topo_core:   Created wrapper IO 'pmc_apb_pmc_pslverr' for interface 'pmc_apb'
2026-04-25 05:25:40 [TOPO INFO] lwnoc_topo.topo_core:   Created wrapper IO 'pmc_apb_pmc_pstrb' for interface 'pmc_apb'
2026-04-25 05:25:40 [TOPO INFO] lwnoc_topo.topo_core:   Created wrapper IO 'pmc_apb_pmc_pwdata' for interface 'pmc_apb'
2026-04-25 05:25:40 [TOPO INFO] lwnoc_topo.topo_core:   Created wrapper IO 'pmc_apb_pmc_pwrite' for interface 'pmc_apb'
2026-04-25 05:25:40 [TOPO INFO] lwnoc_topo.topo_core:   Created wrapper IO 'sys_apb_m_paddr' for interface 'sys_apb'
2026-04-25 05:25:40 [TOPO INFO] lwnoc_topo.topo_core:   Created wrapper IO 'sys_apb_m_penable' for interface 'sys_apb'
2026-04-25 05:25:40 [TOPO INFO] lwnoc_topo.topo_core:   Created wrapper IO 'sys_apb_m_pprot' for interface 'sys_apb'
2026-04-25 05:25:40 [TOPO INFO] lwnoc_topo.topo_core:   Created wrapper IO 'sys_apb_m_prdata' for interface 'sys_apb'
2026-04-25 05:25:40 [TOPO INFO] lwnoc_topo.topo_core:   Created wrapper IO 'sys_apb_m_pready' for interface 'sys_apb'
2026-04-25 05:25:40 [TOPO INFO] lwnoc_topo.topo_core:   Created wrapper IO 'sys_apb_m_psel' for interface 'sys_apb'
2026-04-25 05:25:40 [TOPO INFO] lwnoc_topo.topo_core:   Created wrapper IO 'sys_apb_m_pslverr' for interface 'sys_apb'
2026-04-25 05:25:40 [TOPO INFO] lwnoc_topo.topo_core:   Created wrapper IO 'sys_apb_m_pstrb' for interface 'sys_apb'
2026-04-25 05:25:40 [TOPO INFO] lwnoc_topo.topo_core:   Created wrapper IO 'sys_apb_m_pwdata' for interface 'sys_apb'
2026-04-25 05:25:40 [TOPO INFO] lwnoc_topo.topo_core:   Created wrapper IO 'sys_apb_m_pwrite' for interface 'sys_apb'
2026-04-25 05:25:40 [TOPO INFO] lwnoc_topo.topo_core:   Created wrapper IO 'dbg_data_dbg_data_in' for interface 'dbg_data'
2026-04-25 05:25:40 [TOPO INFO] lwnoc_topo.topo_core:   Created wrapper IO 'dbg_data_dbg_data_out' for interface 'dbg_data'
2026-04-25 05:25:40 [TOPO INFO] lwnoc_topo.topo_core:   Created wrapper IO 'dbg_timestamp_dbg_timestamp_in' for interface 'dbg_timestamp'
2026-04-25 05:25:40 [TOPO INFO] lwnoc_topo.topo_core:   Created wrapper IO 'dbg_timestamp_dbg_timestamp_out' for interface 'dbg_timestamp'
2026-04-25 05:25:40 [TOPO INFO] lwnoc_topo.topo_core:   Created wrapper IO 'sys_cti_event_sys_cti_event_in' for interface 'sys_cti_event'
2026-04-25 05:25:40 [TOPO INFO] lwnoc_topo.topo_core:   Created wrapper IO 'sys_cti_event_sys_cti_event_out' for interface 'sys_cti_event'
2026-04-25 05:25:40 [TOPO INFO] lwnoc_topo.topo_core:   Created wrapper IO 'noc_cti_event_noc_cti_event_in' for interface 'noc_cti_event'
2026-04-25 05:25:40 [TOPO INFO] lwnoc_topo.topo_core:   Created wrapper IO 'noc_cti_event_noc_cti_event_out' for interface 'noc_cti_event'
2026-04-25 05:25:40 [TOPO INFO] lwnoc_topo.topo_core:   Created wrapper IO 'sys_cti_channel_sys_cti_channel_in' for interface 'sys_cti_channel'
2026-04-25 05:25:40 [TOPO INFO] lwnoc_topo.topo_core:   Created wrapper IO 'sys_cti_channel_sys_cti_channel_out' for interface 'sys_cti_channel'
2026-04-25 05:25:40 [TOPO INFO] lwnoc_topo.topo_core:   Created wrapper IO 'noc_cti_channel_noc_cti_channel_in' for interface 'noc_cti_channel'
2026-04-25 05:25:40 [TOPO INFO] lwnoc_topo.topo_core:   Created wrapper IO 'noc_cti_channel_noc_cti_channel_out' for interface 'noc_cti_channel'
2026-04-25 05:25:40 [TOPO INFO] lwnoc_topo.topo_core: Completed UHDL build for wrapper 'dspss5_tniu'
2026-04-25 05:25:40 [TOPO INFO] lwnoc_topo.topo_core:   Instantiated subnode 'dspss5_tniu' in wrapper 'soc_sts_noc'
2026-04-25 05:25:40 [TOPO INFO] lwnoc_topo.topo_core:   Created wrapper IO 'clk_sys' for interface 'clk_sys'
2026-04-25 05:25:40 [TOPO INFO] lwnoc_topo.topo_core:   Created wrapper IO 'rst_sys_n' for interface 'rst_sys_n'
2026-04-25 05:25:40 [TOPO INFO] lwnoc_topo.topo_core:   Created wrapper IO 'clk_harden_dn_func' for interface 'clk_harden_dn_func'
2026-04-25 05:25:40 [TOPO INFO] lwnoc_topo.topo_core:   Created wrapper IO 'rst_harden_dn_func_n' for interface 'rst_harden_dn_func_n'
2026-04-25 05:25:40 [TOPO INFO] lwnoc_topo.topo_core:   Created wrapper IO 'clk_harden_up_func' for interface 'clk_harden_up_func'
2026-04-25 05:25:40 [TOPO INFO] lwnoc_topo.topo_core:   Created wrapper IO 'rst_harden_up_func_n' for interface 'rst_harden_up_func_n'
2026-04-25 05:25:40 [TOPO INFO] lwnoc_topo.topo_core:   Created wrapper IO 'clk_dbg_timer' for interface 'clk_dbg_timer'
2026-04-25 05:25:40 [TOPO INFO] lwnoc_topo.topo_core:   Created wrapper IO 'rst_dbg_timer_n' for interface 'rst_dbg_timer_n'
2026-04-25 05:25:40 [TOPO INFO] lwnoc_topo.topo_core:   Created wrapper IO 'aon_ss_iniu_node_id_porting_node_id' for interface 'aon_ss_iniu.node_id_porting'
2026-04-25 05:25:40 [TOPO INFO] lwnoc_topo.topo_core:   Created wrapper IO 'vpu_ss_tniu_pmc_apb_porting_pmc_apb_pmc_paddr' for interface 'vpu_ss_tniu.pmc_apb_porting'
2026-04-25 05:25:40 [TOPO INFO] lwnoc_topo.topo_core:   Created wrapper IO 'vpu_ss_tniu_pmc_apb_porting_pmc_apb_pmc_penable' for interface 'vpu_ss_tniu.pmc_apb_porting'
2026-04-25 05:25:40 [TOPO INFO] lwnoc_topo.topo_core:   Created wrapper IO 'vpu_ss_tniu_pmc_apb_porting_pmc_apb_pmc_pprot' for interface 'vpu_ss_tniu.pmc_apb_porting'
2026-04-25 05:25:40 [TOPO INFO] lwnoc_topo.topo_core:   Created wrapper IO 'vpu_ss_tniu_pmc_apb_porting_pmc_apb_pmc_prdata' for interface 'vpu_ss_tniu.pmc_apb_porting'
2026-04-25 05:25:40 [TOPO INFO] lwnoc_topo.topo_core:   Created wrapper IO 'vpu_ss_tniu_pmc_apb_porting_pmc_apb_pmc_pready' for interface 'vpu_ss_tniu.pmc_apb_porting'
2026-04-25 05:25:40 [TOPO INFO] lwnoc_topo.topo_core:   Created wrapper IO 'vpu_ss_tniu_pmc_apb_porting_pmc_apb_pmc_psel' for interface 'vpu_ss_tniu.pmc_apb_porting'
2026-04-25 05:25:40 [TOPO INFO] lwnoc_topo.topo_core:   Created wrapper IO 'vpu_ss_tniu_pmc_apb_porting_pmc_apb_pmc_pslverr' for interface 'vpu_ss_tniu.pmc_apb_porting'
2026-04-25 05:25:40 [TOPO INFO] lwnoc_topo.topo_core:   Created wrapper IO 'vpu_ss_tniu_pmc_apb_porting_pmc_apb_pmc_pstrb' for interface 'vpu_ss_tniu.pmc_apb_porting'
2026-04-25 05:25:40 [TOPO INFO] lwnoc_topo.topo_core:   Created wrapper IO 'vpu_ss_tniu_pmc_apb_porting_pmc_apb_pmc_pwdata' for interface 'vpu_ss_tniu.pmc_apb_porting'
2026-04-25 05:25:40 [TOPO INFO] lwnoc_topo.topo_core:   Created wrapper IO 'vpu_ss_tniu_pmc_apb_porting_pmc_apb_pmc_pwrite' for interface 'vpu_ss_tniu.pmc_apb_porting'
2026-04-25 05:25:40 [TOPO INFO] lwnoc_topo.topo_core:   Created wrapper IO 'vpu_ss_tniu_sys_apb_porting_sys_apb_m_paddr' for interface 'vpu_ss_tniu.sys_apb_porting'
2026-04-25 05:25:40 [TOPO INFO] lwnoc_topo.topo_core:   Created wrapper IO 'vpu_ss_tniu_sys_apb_porting_sys_apb_m_penable' for interface 'vpu_ss_tniu.sys_apb_porting'
2026-04-25 05:25:40 [TOPO INFO] lwnoc_topo.topo_core:   Created wrapper IO 'vpu_ss_tniu_sys_apb_porting_sys_apb_m_pprot' for interface 'vpu_ss_tniu.sys_apb_porting'
2026-04-25 05:25:40 [TOPO INFO] lwnoc_topo.topo_core:   Created wrapper IO 'vpu_ss_tniu_sys_apb_porting_sys_apb_m_prdata' for interface 'vpu_ss_tniu.sys_apb_porting'
2026-04-25 05:25:40 [TOPO INFO] lwnoc_topo.topo_core:   Created wrapper IO 'vpu_ss_tniu_sys_apb_porting_sys_apb_m_pready' for interface 'vpu_ss_tniu.sys_apb_porting'
2026-04-25 05:25:40 [TOPO INFO] lwnoc_topo.topo_core:   Created wrapper IO 'vpu_ss_tniu_sys_apb_porting_sys_apb_m_psel' for interface 'vpu_ss_tniu.sys_apb_porting'
2026-04-25 05:25:40 [TOPO INFO] lwnoc_topo.topo_core:   Created wrapper IO 'vpu_ss_tniu_sys_apb_porting_sys_apb_m_pslverr' for interface 'vpu_ss_tniu.sys_apb_porting'
2026-04-25 05:25:40 [TOPO INFO] lwnoc_topo.topo_core:   Created wrapper IO 'vpu_ss_tniu_sys_apb_porting_sys_apb_m_pstrb' for interface 'vpu_ss_tniu.sys_apb_porting'
2026-04-25 05:25:40 [TOPO INFO] lwnoc_topo.topo_core:   Created wrapper IO 'vpu_ss_tniu_sys_apb_porting_sys_apb_m_pwdata' for interface 'vpu_ss_tniu.sys_apb_porting'
2026-04-25 05:25:40 [TOPO INFO] lwnoc_topo.topo_core:   Created wrapper IO 'vpu_ss_tniu_sys_apb_porting_sys_apb_m_pwrite' for interface 'vpu_ss_tniu.sys_apb_porting'
2026-04-25 05:25:40 [TOPO INFO] lwnoc_topo.topo_core:   Created wrapper IO 'vpu_ss_tniu_dbg_data_porting_dbg_data_dbg_data_in' for interface 'vpu_ss_tniu.dbg_data_porting'
2026-04-25 05:25:40 [TOPO INFO] lwnoc_topo.topo_core:   Created wrapper IO 'vpu_ss_tniu_dbg_data_porting_dbg_data_dbg_data_out' for interface 'vpu_ss_tniu.dbg_data_porting'
2026-04-25 05:25:40 [TOPO INFO] lwnoc_topo.topo_core:   Created wrapper IO 'vpu_ss_tniu_dbg_timestamp_porting_dbg_timestamp_dbg_timestamp_in' for interface 'vpu_ss_tniu.dbg_timestamp_porting'
2026-04-25 05:25:40 [TOPO INFO] lwnoc_topo.topo_core:   Created wrapper IO 'vpu_ss_tniu_dbg_timestamp_porting_dbg_timestamp_dbg_timestamp_out' for interface 'vpu_ss_tniu.dbg_timestamp_porting'
2026-04-25 05:25:40 [TOPO INFO] lwnoc_topo.topo_core:   Created wrapper IO 'vpu_ss_tniu_sys_cti_event_porting_sys_cti_event_sys_cti_event_in' for interface 'vpu_ss_tniu.sys_cti_event_porting'
2026-04-25 05:25:40 [TOPO INFO] lwnoc_topo.topo_core:   Created wrapper IO 'vpu_ss_tniu_sys_cti_event_porting_sys_cti_event_sys_cti_event_out' for interface 'vpu_ss_tniu.sys_cti_event_porting'
2026-04-25 05:25:40 [TOPO INFO] lwnoc_topo.topo_core:   Created wrapper IO 'vpu_ss_tniu_noc_cti_event_porting_noc_cti_event_noc_cti_event_in' for interface 'vpu_ss_tniu.noc_cti_event_porting'
2026-04-25 05:25:40 [TOPO INFO] lwnoc_topo.topo_core:   Created wrapper IO 'vpu_ss_tniu_noc_cti_event_porting_noc_cti_event_noc_cti_event_out' for interface 'vpu_ss_tniu.noc_cti_event_porting'
2026-04-25 05:25:40 [TOPO INFO] lwnoc_topo.topo_core:   Created wrapper IO 'vpu_ss_tniu_sys_cti_channel_porting_sys_cti_channel_sys_cti_channel_in' for interface 'vpu_ss_tniu.sys_cti_channel_porting'
2026-04-25 05:25:40 [TOPO INFO] lwnoc_topo.topo_core:   Created wrapper IO 'vpu_ss_tniu_sys_cti_channel_porting_sys_cti_channel_sys_cti_channel_out' for interface 'vpu_ss_tniu.sys_cti_channel_porting'
2026-04-25 05:25:40 [TOPO INFO] lwnoc_topo.topo_core:   Created wrapper IO 'vpu_ss_tniu_noc_cti_channel_porting_noc_cti_channel_noc_cti_channel_in' for interface 'vpu_ss_tniu.noc_cti_channel_porting'
2026-04-25 05:25:40 [TOPO INFO] lwnoc_topo.topo_core:   Created wrapper IO 'vpu_ss_tniu_noc_cti_channel_porting_noc_cti_channel_noc_cti_channel_out' for interface 'vpu_ss_tniu.noc_cti_channel_porting'
2026-04-25 05:25:40 [TOPO INFO] lwnoc_topo.topo_core:   Created wrapper IO 'camera_ss_tniu_pmc_apb_porting_pmc_apb_pmc_paddr' for interface 'camera_ss_tniu.pmc_apb_porting'
2026-04-25 05:25:40 [TOPO INFO] lwnoc_topo.topo_core:   Created wrapper IO 'camera_ss_tniu_pmc_apb_porting_pmc_apb_pmc_penable' for interface 'camera_ss_tniu.pmc_apb_porting'
2026-04-25 05:25:40 [TOPO INFO] lwnoc_topo.topo_core:   Created wrapper IO 'camera_ss_tniu_pmc_apb_porting_pmc_apb_pmc_pprot' for interface 'camera_ss_tniu.pmc_apb_porting'
2026-04-25 05:25:40 [TOPO INFO] lwnoc_topo.topo_core:   Created wrapper IO 'camera_ss_tniu_pmc_apb_porting_pmc_apb_pmc_prdata' for interface 'camera_ss_tniu.pmc_apb_porting'
2026-04-25 05:25:40 [TOPO INFO] lwnoc_topo.topo_core:   Created wrapper IO 'camera_ss_tniu_pmc_apb_porting_pmc_apb_pmc_pready' for interface 'camera_ss_tniu.pmc_apb_porting'
2026-04-25 05:25:40 [TOPO INFO] lwnoc_topo.topo_core:   Created wrapper IO 'camera_ss_tniu_pmc_apb_porting_pmc_apb_pmc_psel' for interface 'camera_ss_tniu.pmc_apb_porting'
2026-04-25 05:25:40 [TOPO INFO] lwnoc_topo.topo_core:   Created wrapper IO 'camera_ss_tniu_pmc_apb_porting_pmc_apb_pmc_pslverr' for interface 'camera_ss_tniu.pmc_apb_porting'
2026-04-25 05:25:40 [TOPO INFO] lwnoc_topo.topo_core:   Created wrapper IO 'camera_ss_tniu_pmc_apb_porting_pmc_apb_pmc_pstrb' for interface 'camera_ss_tniu.pmc_apb_porting'
2026-04-25 05:25:40 [TOPO INFO] lwnoc_topo.topo_core:   Created wrapper IO 'camera_ss_tniu_pmc_apb_porting_pmc_apb_pmc_pwdata' for interface 'camera_ss_tniu.pmc_apb_porting'
2026-04-25 05:25:40 [TOPO INFO] lwnoc_topo.topo_core:   Created wrapper IO 'camera_ss_tniu_pmc_apb_porting_pmc_apb_pmc_pwrite' for interface 'camera_ss_tniu.pmc_apb_porting'
2026-04-25 05:25:40 [TOPO INFO] lwnoc_topo.topo_core:   Created wrapper IO 'camera_ss_tniu_sys_apb_porting_sys_apb_m_paddr' for interface 'camera_ss_tniu.sys_apb_porting'
2026-04-25 05:25:40 [TOPO INFO] lwnoc_topo.topo_core:   Created wrapper IO 'camera_ss_tniu_sys_apb_porting_sys_apb_m_penable' for interface 'camera_ss_tniu.sys_apb_porting'
2026-04-25 05:25:40 [TOPO INFO] lwnoc_topo.topo_core:   Created wrapper IO 'camera_ss_tniu_sys_apb_porting_sys_apb_m_pprot' for interface 'camera_ss_tniu.sys_apb_porting'
2026-04-25 05:25:40 [TOPO INFO] lwnoc_topo.topo_core:   Created wrapper IO 'camera_ss_tniu_sys_apb_porting_sys_apb_m_prdata' for interface 'camera_ss_tniu.sys_apb_porting'
2026-04-25 05:25:40 [TOPO INFO] lwnoc_topo.topo_core:   Created wrapper IO 'camera_ss_tniu_sys_apb_porting_sys_apb_m_pready' for interface 'camera_ss_tniu.sys_apb_porting'
2026-04-25 05:25:40 [TOPO INFO] lwnoc_topo.topo_core:   Created wrapper IO 'camera_ss_tniu_sys_apb_porting_sys_apb_m_psel' for interface 'camera_ss_tniu.sys_apb_porting'
2026-04-25 05:25:40 [TOPO INFO] lwnoc_topo.topo_core:   Created wrapper IO 'camera_ss_tniu_sys_apb_porting_sys_apb_m_pslverr' for interface 'camera_ss_tniu.sys_apb_porting'
2026-04-25 05:25:40 [TOPO INFO] lwnoc_topo.topo_core:   Created wrapper IO 'camera_ss_tniu_sys_apb_porting_sys_apb_m_pstrb' for interface 'camera_ss_tniu.sys_apb_porting'
2026-04-25 05:25:40 [TOPO INFO] lwnoc_topo.topo_core:   Created wrapper IO 'camera_ss_tniu_sys_apb_porting_sys_apb_m_pwdata' for interface 'camera_ss_tniu.sys_apb_porting'
2026-04-25 05:25:40 [TOPO INFO] lwnoc_topo.topo_core:   Created wrapper IO 'camera_ss_tniu_sys_apb_porting_sys_apb_m_pwrite' for interface 'camera_ss_tniu.sys_apb_porting'
2026-04-25 05:25:40 [TOPO INFO] lwnoc_topo.topo_core:   Created wrapper IO 'camera_ss_tniu_dbg_data_porting_dbg_data_dbg_data_in' for interface 'camera_ss_tniu.dbg_data_porting'
2026-04-25 05:25:40 [TOPO INFO] lwnoc_topo.topo_core:   Created wrapper IO 'camera_ss_tniu_dbg_data_porting_dbg_data_dbg_data_out' for interface 'camera_ss_tniu.dbg_data_porting'
2026-04-25 05:25:40 [TOPO INFO] lwnoc_topo.topo_core:   Created wrapper IO 'camera_ss_tniu_dbg_timestamp_porting_dbg_timestamp_dbg_timestamp_in' for interface 'camera_ss_tniu.dbg_timestamp_porting'
2026-04-25 05:25:40 [TOPO INFO] lwnoc_topo.topo_core:   Created wrapper IO 'camera_ss_tniu_dbg_timestamp_porting_dbg_timestamp_dbg_timestamp_out' for interface 'camera_ss_tniu.dbg_timestamp_porting'
2026-04-25 05:25:40 [TOPO INFO] lwnoc_topo.topo_core:   Created wrapper IO 'camera_ss_tniu_sys_cti_event_porting_sys_cti_event_sys_cti_event_in' for interface 'camera_ss_tniu.sys_cti_event_porting'
2026-04-25 05:25:40 [TOPO INFO] lwnoc_topo.topo_core:   Created wrapper IO 'camera_ss_tniu_sys_cti_event_porting_sys_cti_event_sys_cti_event_out' for interface 'camera_ss_tniu.sys_cti_event_porting'
2026-04-25 05:25:40 [TOPO INFO] lwnoc_topo.topo_core:   Created wrapper IO 'camera_ss_tniu_noc_cti_event_porting_noc_cti_event_noc_cti_event_in' for interface 'camera_ss_tniu.noc_cti_event_porting'
2026-04-25 05:25:40 [TOPO INFO] lwnoc_topo.topo_core:   Created wrapper IO 'camera_ss_tniu_noc_cti_event_porting_noc_cti_event_noc_cti_event_out' for interface 'camera_ss_tniu.noc_cti_event_porting'
2026-04-25 05:25:40 [TOPO INFO] lwnoc_topo.topo_core:   Created wrapper IO 'camera_ss_tniu_sys_cti_channel_porting_sys_cti_channel_sys_cti_channel_in' for interface 'camera_ss_tniu.sys_cti_channel_porting'
2026-04-25 05:25:40 [TOPO INFO] lwnoc_topo.topo_core:   Created wrapper IO 'camera_ss_tniu_sys_cti_channel_porting_sys_cti_channel_sys_cti_channel_out' for interface 'camera_ss_tniu.sys_cti_channel_porting'
2026-04-25 05:25:40 [TOPO INFO] lwnoc_topo.topo_core:   Created wrapper IO 'camera_ss_tniu_noc_cti_channel_porting_noc_cti_channel_noc_cti_channel_in' for interface 'camera_ss_tniu.noc_cti_channel_porting'
2026-04-25 05:25:40 [TOPO INFO] lwnoc_topo.topo_core:   Created wrapper IO 'camera_ss_tniu_noc_cti_channel_porting_noc_cti_channel_noc_cti_channel_out' for interface 'camera_ss_tniu.noc_cti_channel_porting'
2026-04-25 05:25:40 [TOPO INFO] lwnoc_topo.topo_core:   Created wrapper IO 'dspss0_tniu_pmc_apb_porting_pmc_apb_pmc_paddr' for interface 'dspss0_tniu.pmc_apb_porting'
2026-04-25 05:25:40 [TOPO INFO] lwnoc_topo.topo_core:   Created wrapper IO 'dspss0_tniu_pmc_apb_porting_pmc_apb_pmc_penable' for interface 'dspss0_tniu.pmc_apb_porting'
2026-04-25 05:25:40 [TOPO INFO] lwnoc_topo.topo_core:   Created wrapper IO 'dspss0_tniu_pmc_apb_porting_pmc_apb_pmc_pprot' for interface 'dspss0_tniu.pmc_apb_porting'
2026-04-25 05:25:40 [TOPO INFO] lwnoc_topo.topo_core:   Created wrapper IO 'dspss0_tniu_pmc_apb_porting_pmc_apb_pmc_prdata' for interface 'dspss0_tniu.pmc_apb_porting'
2026-04-25 05:25:40 [TOPO INFO] lwnoc_topo.topo_core:   Created wrapper IO 'dspss0_tniu_pmc_apb_porting_pmc_apb_pmc_pready' for interface 'dspss0_tniu.pmc_apb_porting'
2026-04-25 05:25:40 [TOPO INFO] lwnoc_topo.topo_core:   Created wrapper IO 'dspss0_tniu_pmc_apb_porting_pmc_apb_pmc_psel' for interface 'dspss0_tniu.pmc_apb_porting'
2026-04-25 05:25:40 [TOPO INFO] lwnoc_topo.topo_core:   Created wrapper IO 'dspss0_tniu_pmc_apb_porting_pmc_apb_pmc_pslverr' for interface 'dspss0_tniu.pmc_apb_porting'
2026-04-25 05:25:40 [TOPO INFO] lwnoc_topo.topo_core:   Created wrapper IO 'dspss0_tniu_pmc_apb_porting_pmc_apb_pmc_pstrb' for interface 'dspss0_tniu.pmc_apb_porting'
2026-04-25 05:25:40 [TOPO INFO] lwnoc_topo.topo_core:   Created wrapper IO 'dspss0_tniu_pmc_apb_porting_pmc_apb_pmc_pwdata' for interface 'dspss0_tniu.pmc_apb_porting'
2026-04-25 05:25:40 [TOPO INFO] lwnoc_topo.topo_core:   Created wrapper IO 'dspss0_tniu_pmc_apb_porting_pmc_apb_pmc_pwrite' for interface 'dspss0_tniu.pmc_apb_porting'
2026-04-25 05:25:40 [TOPO INFO] lwnoc_topo.topo_core:   Created wrapper IO 'dspss0_tniu_sys_apb_porting_sys_apb_m_paddr' for interface 'dspss0_tniu.sys_apb_porting'
2026-04-25 05:25:40 [TOPO INFO] lwnoc_topo.topo_core:   Created wrapper IO 'dspss0_tniu_sys_apb_porting_sys_apb_m_penable' for interface 'dspss0_tniu.sys_apb_porting'
2026-04-25 05:25:40 [TOPO INFO] lwnoc_topo.topo_core:   Created wrapper IO 'dspss0_tniu_sys_apb_porting_sys_apb_m_pprot' for interface 'dspss0_tniu.sys_apb_porting'
2026-04-25 05:25:40 [TOPO INFO] lwnoc_topo.topo_core:   Created wrapper IO 'dspss0_tniu_sys_apb_porting_sys_apb_m_prdata' for interface 'dspss0_tniu.sys_apb_porting'
2026-04-25 05:25:40 [TOPO INFO] lwnoc_topo.topo_core:   Created wrapper IO 'dspss0_tniu_sys_apb_porting_sys_apb_m_pready' for interface 'dspss0_tniu.sys_apb_porting'
2026-04-25 05:25:40 [TOPO INFO] lwnoc_topo.topo_core:   Created wrapper IO 'dspss0_tniu_sys_apb_porting_sys_apb_m_psel' for interface 'dspss0_tniu.sys_apb_porting'
2026-04-25 05:25:40 [TOPO INFO] lwnoc_topo.topo_core:   Created wrapper IO 'dspss0_tniu_sys_apb_porting_sys_apb_m_pslverr' for interface 'dspss0_tniu.sys_apb_porting'
2026-04-25 05:25:40 [TOPO INFO] lwnoc_topo.topo_core:   Created wrapper IO 'dspss0_tniu_sys_apb_porting_sys_apb_m_pstrb' for interface 'dspss0_tniu.sys_apb_porting'
2026-04-25 05:25:40 [TOPO INFO] lwnoc_topo.topo_core:   Created wrapper IO 'dspss0_tniu_sys_apb_porting_sys_apb_m_pwdata' for interface 'dspss0_tniu.sys_apb_porting'
2026-04-25 05:25:40 [TOPO INFO] lwnoc_topo.topo_core:   Created wrapper IO 'dspss0_tniu_sys_apb_porting_sys_apb_m_pwrite' for interface 'dspss0_tniu.sys_apb_porting'
2026-04-25 05:25:40 [TOPO INFO] lwnoc_topo.topo_core:   Created wrapper IO 'dspss0_tniu_dbg_data_porting_dbg_data_dbg_data_in' for interface 'dspss0_tniu.dbg_data_porting'
2026-04-25 05:25:40 [TOPO INFO] lwnoc_topo.topo_core:   Created wrapper IO 'dspss0_tniu_dbg_data_porting_dbg_data_dbg_data_out' for interface 'dspss0_tniu.dbg_data_porting'
2026-04-25 05:25:40 [TOPO INFO] lwnoc_topo.topo_core:   Created wrapper IO 'dspss0_tniu_dbg_timestamp_porting_dbg_timestamp_dbg_timestamp_in' for interface 'dspss0_tniu.dbg_timestamp_porting'
2026-04-25 05:25:40 [TOPO INFO] lwnoc_topo.topo_core:   Created wrapper IO 'dspss0_tniu_dbg_timestamp_porting_dbg_timestamp_dbg_timestamp_out' for interface 'dspss0_tniu.dbg_timestamp_porting'
2026-04-25 05:25:40 [TOPO INFO] lwnoc_topo.topo_core:   Created wrapper IO 'dspss0_tniu_sys_cti_event_porting_sys_cti_event_sys_cti_event_in' for interface 'dspss0_tniu.sys_cti_event_porting'
2026-04-25 05:25:40 [TOPO INFO] lwnoc_topo.topo_core:   Created wrapper IO 'dspss0_tniu_sys_cti_event_porting_sys_cti_event_sys_cti_event_out' for interface 'dspss0_tniu.sys_cti_event_porting'
2026-04-25 05:25:40 [TOPO INFO] lwnoc_topo.topo_core:   Created wrapper IO 'dspss0_tniu_noc_cti_event_porting_noc_cti_event_noc_cti_event_in' for interface 'dspss0_tniu.noc_cti_event_porting'
2026-04-25 05:25:40 [TOPO INFO] lwnoc_topo.topo_core:   Created wrapper IO 'dspss0_tniu_noc_cti_event_porting_noc_cti_event_noc_cti_event_out' for interface 'dspss0_tniu.noc_cti_event_porting'
2026-04-25 05:25:40 [TOPO INFO] lwnoc_topo.topo_core:   Created wrapper IO 'dspss0_tniu_sys_cti_channel_porting_sys_cti_channel_sys_cti_channel_in' for interface 'dspss0_tniu.sys_cti_channel_porting'
2026-04-25 05:25:40 [TOPO INFO] lwnoc_topo.topo_core:   Created wrapper IO 'dspss0_tniu_sys_cti_channel_porting_sys_cti_channel_sys_cti_channel_out' for interface 'dspss0_tniu.sys_cti_channel_porting'
2026-04-25 05:25:40 [TOPO INFO] lwnoc_topo.topo_core:   Created wrapper IO 'dspss0_tniu_noc_cti_channel_porting_noc_cti_channel_noc_cti_channel_in' for interface 'dspss0_tniu.noc_cti_channel_porting'
2026-04-25 05:25:40 [TOPO INFO] lwnoc_topo.topo_core:   Created wrapper IO 'dspss0_tniu_noc_cti_channel_porting_noc_cti_channel_noc_cti_channel_out' for interface 'dspss0_tniu.noc_cti_channel_porting'
2026-04-25 05:25:40 [TOPO INFO] lwnoc_topo.topo_core:   Created wrapper IO 'dspss1_tniu_pmc_apb_porting_pmc_apb_pmc_paddr' for interface 'dspss1_tniu.pmc_apb_porting'
2026-04-25 05:25:40 [TOPO INFO] lwnoc_topo.topo_core:   Created wrapper IO 'dspss1_tniu_pmc_apb_porting_pmc_apb_pmc_penable' for interface 'dspss1_tniu.pmc_apb_porting'
2026-04-25 05:25:40 [TOPO INFO] lwnoc_topo.topo_core:   Created wrapper IO 'dspss1_tniu_pmc_apb_porting_pmc_apb_pmc_pprot' for interface 'dspss1_tniu.pmc_apb_porting'
2026-04-25 05:25:40 [TOPO INFO] lwnoc_topo.topo_core:   Created wrapper IO 'dspss1_tniu_pmc_apb_porting_pmc_apb_pmc_prdata' for interface 'dspss1_tniu.pmc_apb_porting'
2026-04-25 05:25:40 [TOPO INFO] lwnoc_topo.topo_core:   Created wrapper IO 'dspss1_tniu_pmc_apb_porting_pmc_apb_pmc_pready' for interface 'dspss1_tniu.pmc_apb_porting'
2026-04-25 05:25:40 [TOPO INFO] lwnoc_topo.topo_core:   Created wrapper IO 'dspss1_tniu_pmc_apb_porting_pmc_apb_pmc_psel' for interface 'dspss1_tniu.pmc_apb_porting'
2026-04-25 05:25:40 [TOPO INFO] lwnoc_topo.topo_core:   Created wrapper IO 'dspss1_tniu_pmc_apb_porting_pmc_apb_pmc_pslverr' for interface 'dspss1_tniu.pmc_apb_porting'
2026-04-25 05:25:40 [TOPO INFO] lwnoc_topo.topo_core:   Created wrapper IO 'dspss1_tniu_pmc_apb_porting_pmc_apb_pmc_pstrb' for interface 'dspss1_tniu.pmc_apb_porting'
2026-04-25 05:25:40 [TOPO INFO] lwnoc_topo.topo_core:   Created wrapper IO 'dspss1_tniu_pmc_apb_porting_pmc_apb_pmc_pwdata' for interface 'dspss1_tniu.pmc_apb_porting'
2026-04-25 05:25:40 [TOPO INFO] lwnoc_topo.topo_core:   Created wrapper IO 'dspss1_tniu_pmc_apb_porting_pmc_apb_pmc_pwrite' for interface 'dspss1_tniu.pmc_apb_porting'
2026-04-25 05:25:40 [TOPO INFO] lwnoc_topo.topo_core:   Created wrapper IO 'dspss1_tniu_sys_apb_porting_sys_apb_m_paddr' for interface 'dspss1_tniu.sys_apb_porting'
2026-04-25 05:25:40 [TOPO INFO] lwnoc_topo.topo_core:   Created wrapper IO 'dspss1_tniu_sys_apb_porting_sys_apb_m_penable' for interface 'dspss1_tniu.sys_apb_porting'
2026-04-25 05:25:40 [TOPO INFO] lwnoc_topo.topo_core:   Created wrapper IO 'dspss1_tniu_sys_apb_porting_sys_apb_m_pprot' for interface 'dspss1_tniu.sys_apb_porting'
2026-04-25 05:25:40 [TOPO INFO] lwnoc_topo.topo_core:   Created wrapper IO 'dspss1_tniu_sys_apb_porting_sys_apb_m_prdata' for interface 'dspss1_tniu.sys_apb_porting'
2026-04-25 05:25:40 [TOPO INFO] lwnoc_topo.topo_core:   Created wrapper IO 'dspss1_tniu_sys_apb_porting_sys_apb_m_pready' for interface 'dspss1_tniu.sys_apb_porting'
2026-04-25 05:25:40 [TOPO INFO] lwnoc_topo.topo_core:   Created wrapper IO 'dspss1_tniu_sys_apb_porting_sys_apb_m_psel' for interface 'dspss1_tniu.sys_apb_porting'
2026-04-25 05:25:40 [TOPO INFO] lwnoc_topo.topo_core:   Created wrapper IO 'dspss1_tniu_sys_apb_porting_sys_apb_m_pslverr' for interface 'dspss1_tniu.sys_apb_porting'
2026-04-25 05:25:40 [TOPO INFO] lwnoc_topo.topo_core:   Created wrapper IO 'dspss1_tniu_sys_apb_porting_sys_apb_m_pstrb' for interface 'dspss1_tniu.sys_apb_porting'
2026-04-25 05:25:40 [TOPO INFO] lwnoc_topo.topo_core:   Created wrapper IO 'dspss1_tniu_sys_apb_porting_sys_apb_m_pwdata' for interface 'dspss1_tniu.sys_apb_porting'
2026-04-25 05:25:40 [TOPO INFO] lwnoc_topo.topo_core:   Created wrapper IO 'dspss1_tniu_sys_apb_porting_sys_apb_m_pwrite' for interface 'dspss1_tniu.sys_apb_porting'
2026-04-25 05:25:40 [TOPO INFO] lwnoc_topo.topo_core:   Created wrapper IO 'dspss1_tniu_dbg_data_porting_dbg_data_dbg_data_in' for interface 'dspss1_tniu.dbg_data_porting'
2026-04-25 05:25:40 [TOPO INFO] lwnoc_topo.topo_core:   Created wrapper IO 'dspss1_tniu_dbg_data_porting_dbg_data_dbg_data_out' for interface 'dspss1_tniu.dbg_data_porting'
2026-04-25 05:25:40 [TOPO INFO] lwnoc_topo.topo_core:   Created wrapper IO 'dspss1_tniu_dbg_timestamp_porting_dbg_timestamp_dbg_timestamp_in' for interface 'dspss1_tniu.dbg_timestamp_porting'
2026-04-25 05:25:40 [TOPO INFO] lwnoc_topo.topo_core:   Created wrapper IO 'dspss1_tniu_dbg_timestamp_porting_dbg_timestamp_dbg_timestamp_out' for interface 'dspss1_tniu.dbg_timestamp_porting'
2026-04-25 05:25:40 [TOPO INFO] lwnoc_topo.topo_core:   Created wrapper IO 'dspss1_tniu_sys_cti_event_porting_sys_cti_event_sys_cti_event_in' for interface 'dspss1_tniu.sys_cti_event_porting'
2026-04-25 05:25:40 [TOPO INFO] lwnoc_topo.topo_core:   Created wrapper IO 'dspss1_tniu_sys_cti_event_porting_sys_cti_event_sys_cti_event_out' for interface 'dspss1_tniu.sys_cti_event_porting'
2026-04-25 05:25:40 [TOPO INFO] lwnoc_topo.topo_core:   Created wrapper IO 'dspss1_tniu_noc_cti_event_porting_noc_cti_event_noc_cti_event_in' for interface 'dspss1_tniu.noc_cti_event_porting'
2026-04-25 05:25:40 [TOPO INFO] lwnoc_topo.topo_core:   Created wrapper IO 'dspss1_tniu_noc_cti_event_porting_noc_cti_event_noc_cti_event_out' for interface 'dspss1_tniu.noc_cti_event_porting'
2026-04-25 05:25:40 [TOPO INFO] lwnoc_topo.topo_core:   Created wrapper IO 'dspss1_tniu_sys_cti_channel_porting_sys_cti_channel_sys_cti_channel_in' for interface 'dspss1_tniu.sys_cti_channel_porting'
2026-04-25 05:25:40 [TOPO INFO] lwnoc_topo.topo_core:   Created wrapper IO 'dspss1_tniu_sys_cti_channel_porting_sys_cti_channel_sys_cti_channel_out' for interface 'dspss1_tniu.sys_cti_channel_porting'
2026-04-25 05:25:40 [TOPO INFO] lwnoc_topo.topo_core:   Created wrapper IO 'dspss1_tniu_noc_cti_channel_porting_noc_cti_channel_noc_cti_channel_in' for interface 'dspss1_tniu.noc_cti_channel_porting'
2026-04-25 05:25:40 [TOPO INFO] lwnoc_topo.topo_core:   Created wrapper IO 'dspss1_tniu_noc_cti_channel_porting_noc_cti_channel_noc_cti_channel_out' for interface 'dspss1_tniu.noc_cti_channel_porting'
2026-04-25 05:25:40 [TOPO INFO] lwnoc_topo.topo_core:   Created wrapper IO 'dspss2_tniu_pmc_apb_porting_pmc_apb_pmc_paddr' for interface 'dspss2_tniu.pmc_apb_porting'
2026-04-25 05:25:40 [TOPO INFO] lwnoc_topo.topo_core:   Created wrapper IO 'dspss2_tniu_pmc_apb_porting_pmc_apb_pmc_penable' for interface 'dspss2_tniu.pmc_apb_porting'
2026-04-25 05:25:40 [TOPO INFO] lwnoc_topo.topo_core:   Created wrapper IO 'dspss2_tniu_pmc_apb_porting_pmc_apb_pmc_pprot' for interface 'dspss2_tniu.pmc_apb_porting'
2026-04-25 05:25:40 [TOPO INFO] lwnoc_topo.topo_core:   Created wrapper IO 'dspss2_tniu_pmc_apb_porting_pmc_apb_pmc_prdata' for interface 'dspss2_tniu.pmc_apb_porting'
2026-04-25 05:25:40 [TOPO INFO] lwnoc_topo.topo_core:   Created wrapper IO 'dspss2_tniu_pmc_apb_porting_pmc_apb_pmc_pready' for interface 'dspss2_tniu.pmc_apb_porting'
2026-04-25 05:25:40 [TOPO INFO] lwnoc_topo.topo_core:   Created wrapper IO 'dspss2_tniu_pmc_apb_porting_pmc_apb_pmc_psel' for interface 'dspss2_tniu.pmc_apb_porting'
2026-04-25 05:25:40 [TOPO INFO] lwnoc_topo.topo_core:   Created wrapper IO 'dspss2_tniu_pmc_apb_porting_pmc_apb_pmc_pslverr' for interface 'dspss2_tniu.pmc_apb_porting'
2026-04-25 05:25:40 [TOPO INFO] lwnoc_topo.topo_core:   Created wrapper IO 'dspss2_tniu_pmc_apb_porting_pmc_apb_pmc_pstrb' for interface 'dspss2_tniu.pmc_apb_porting'
2026-04-25 05:25:40 [TOPO INFO] lwnoc_topo.topo_core:   Created wrapper IO 'dspss2_tniu_pmc_apb_porting_pmc_apb_pmc_pwdata' for interface 'dspss2_tniu.pmc_apb_porting'
2026-04-25 05:25:40 [TOPO INFO] lwnoc_topo.topo_core:   Created wrapper IO 'dspss2_tniu_pmc_apb_porting_pmc_apb_pmc_pwrite' for interface 'dspss2_tniu.pmc_apb_porting'
2026-04-25 05:25:40 [TOPO INFO] lwnoc_topo.topo_core:   Created wrapper IO 'dspss2_tniu_sys_apb_porting_sys_apb_m_paddr' for interface 'dspss2_tniu.sys_apb_porting'
2026-04-25 05:25:40 [TOPO INFO] lwnoc_topo.topo_core:   Created wrapper IO 'dspss2_tniu_sys_apb_porting_sys_apb_m_penable' for interface 'dspss2_tniu.sys_apb_porting'
2026-04-25 05:25:40 [TOPO INFO] lwnoc_topo.topo_core:   Created wrapper IO 'dspss2_tniu_sys_apb_porting_sys_apb_m_pprot' for interface 'dspss2_tniu.sys_apb_porting'
2026-04-25 05:25:40 [TOPO INFO] lwnoc_topo.topo_core:   Created wrapper IO 'dspss2_tniu_sys_apb_porting_sys_apb_m_prdata' for interface 'dspss2_tniu.sys_apb_porting'
2026-04-25 05:25:40 [TOPO INFO] lwnoc_topo.topo_core:   Created wrapper IO 'dspss2_tniu_sys_apb_porting_sys_apb_m_pready' for interface 'dspss2_tniu.sys_apb_porting'
2026-04-25 05:25:40 [TOPO INFO] lwnoc_topo.topo_core:   Created wrapper IO 'dspss2_tniu_sys_apb_porting_sys_apb_m_psel' for interface 'dspss2_tniu.sys_apb_porting'
2026-04-25 05:25:40 [TOPO INFO] lwnoc_topo.topo_core:   Created wrapper IO 'dspss2_tniu_sys_apb_porting_sys_apb_m_pslverr' for interface 'dspss2_tniu.sys_apb_porting'
2026-04-25 05:25:40 [TOPO INFO] lwnoc_topo.topo_core:   Created wrapper IO 'dspss2_tniu_sys_apb_porting_sys_apb_m_pstrb' for interface 'dspss2_tniu.sys_apb_porting'
2026-04-25 05:25:40 [TOPO INFO] lwnoc_topo.topo_core:   Created wrapper IO 'dspss2_tniu_sys_apb_porting_sys_apb_m_pwdata' for interface 'dspss2_tniu.sys_apb_porting'
2026-04-25 05:25:40 [TOPO INFO] lwnoc_topo.topo_core:   Created wrapper IO 'dspss2_tniu_sys_apb_porting_sys_apb_m_pwrite' for interface 'dspss2_tniu.sys_apb_porting'
2026-04-25 05:25:40 [TOPO INFO] lwnoc_topo.topo_core:   Created wrapper IO 'dspss2_tniu_dbg_data_porting_dbg_data_dbg_data_in' for interface 'dspss2_tniu.dbg_data_porting'
2026-04-25 05:25:40 [TOPO INFO] lwnoc_topo.topo_core:   Created wrapper IO 'dspss2_tniu_dbg_data_porting_dbg_data_dbg_data_out' for interface 'dspss2_tniu.dbg_data_porting'
2026-04-25 05:25:40 [TOPO INFO] lwnoc_topo.topo_core:   Created wrapper IO 'dspss2_tniu_dbg_timestamp_porting_dbg_timestamp_dbg_timestamp_in' for interface 'dspss2_tniu.dbg_timestamp_porting'
2026-04-25 05:25:40 [TOPO INFO] lwnoc_topo.topo_core:   Created wrapper IO 'dspss2_tniu_dbg_timestamp_porting_dbg_timestamp_dbg_timestamp_out' for interface 'dspss2_tniu.dbg_timestamp_porting'
2026-04-25 05:25:40 [TOPO INFO] lwnoc_topo.topo_core:   Created wrapper IO 'dspss2_tniu_sys_cti_event_porting_sys_cti_event_sys_cti_event_in' for interface 'dspss2_tniu.sys_cti_event_porting'
2026-04-25 05:25:40 [TOPO INFO] lwnoc_topo.topo_core:   Created wrapper IO 'dspss2_tniu_sys_cti_event_porting_sys_cti_event_sys_cti_event_out' for interface 'dspss2_tniu.sys_cti_event_porting'
2026-04-25 05:25:40 [TOPO INFO] lwnoc_topo.topo_core:   Created wrapper IO 'dspss2_tniu_noc_cti_event_porting_noc_cti_event_noc_cti_event_in' for interface 'dspss2_tniu.noc_cti_event_porting'
2026-04-25 05:25:40 [TOPO INFO] lwnoc_topo.topo_core:   Created wrapper IO 'dspss2_tniu_noc_cti_event_porting_noc_cti_event_noc_cti_event_out' for interface 'dspss2_tniu.noc_cti_event_porting'
2026-04-25 05:25:40 [TOPO INFO] lwnoc_topo.topo_core:   Created wrapper IO 'dspss2_tniu_sys_cti_channel_porting_sys_cti_channel_sys_cti_channel_in' for interface 'dspss2_tniu.sys_cti_channel_porting'
2026-04-25 05:25:40 [TOPO INFO] lwnoc_topo.topo_core:   Created wrapper IO 'dspss2_tniu_sys_cti_channel_porting_sys_cti_channel_sys_cti_channel_out' for interface 'dspss2_tniu.sys_cti_channel_porting'
2026-04-25 05:25:40 [TOPO INFO] lwnoc_topo.topo_core:   Created wrapper IO 'dspss2_tniu_noc_cti_channel_porting_noc_cti_channel_noc_cti_channel_in' for interface 'dspss2_tniu.noc_cti_channel_porting'
2026-04-25 05:25:40 [TOPO INFO] lwnoc_topo.topo_core:   Created wrapper IO 'dspss2_tniu_noc_cti_channel_porting_noc_cti_channel_noc_cti_channel_out' for interface 'dspss2_tniu.noc_cti_channel_porting'
2026-04-25 05:25:40 [TOPO INFO] lwnoc_topo.topo_core:   Created wrapper IO 'dspss3_tniu_pmc_apb_porting_pmc_apb_pmc_paddr' for interface 'dspss3_tniu.pmc_apb_porting'
2026-04-25 05:25:40 [TOPO INFO] lwnoc_topo.topo_core:   Created wrapper IO 'dspss3_tniu_pmc_apb_porting_pmc_apb_pmc_penable' for interface 'dspss3_tniu.pmc_apb_porting'
2026-04-25 05:25:40 [TOPO INFO] lwnoc_topo.topo_core:   Created wrapper IO 'dspss3_tniu_pmc_apb_porting_pmc_apb_pmc_pprot' for interface 'dspss3_tniu.pmc_apb_porting'
2026-04-25 05:25:40 [TOPO INFO] lwnoc_topo.topo_core:   Created wrapper IO 'dspss3_tniu_pmc_apb_porting_pmc_apb_pmc_prdata' for interface 'dspss3_tniu.pmc_apb_porting'
2026-04-25 05:25:40 [TOPO INFO] lwnoc_topo.topo_core:   Created wrapper IO 'dspss3_tniu_pmc_apb_porting_pmc_apb_pmc_pready' for interface 'dspss3_tniu.pmc_apb_porting'
2026-04-25 05:25:40 [TOPO INFO] lwnoc_topo.topo_core:   Created wrapper IO 'dspss3_tniu_pmc_apb_porting_pmc_apb_pmc_psel' for interface 'dspss3_tniu.pmc_apb_porting'
2026-04-25 05:25:40 [TOPO INFO] lwnoc_topo.topo_core:   Created wrapper IO 'dspss3_tniu_pmc_apb_porting_pmc_apb_pmc_pslverr' for interface 'dspss3_tniu.pmc_apb_porting'
2026-04-25 05:25:40 [TOPO INFO] lwnoc_topo.topo_core:   Created wrapper IO 'dspss3_tniu_pmc_apb_porting_pmc_apb_pmc_pstrb' for interface 'dspss3_tniu.pmc_apb_porting'
2026-04-25 05:25:40 [TOPO INFO] lwnoc_topo.topo_core:   Created wrapper IO 'dspss3_tniu_pmc_apb_porting_pmc_apb_pmc_pwdata' for interface 'dspss3_tniu.pmc_apb_porting'
2026-04-25 05:25:40 [TOPO INFO] lwnoc_topo.topo_core:   Created wrapper IO 'dspss3_tniu_pmc_apb_porting_pmc_apb_pmc_pwrite' for interface 'dspss3_tniu.pmc_apb_porting'
2026-04-25 05:25:40 [TOPO INFO] lwnoc_topo.topo_core:   Created wrapper IO 'dspss3_tniu_sys_apb_porting_sys_apb_m_paddr' for interface 'dspss3_tniu.sys_apb_porting'
2026-04-25 05:25:40 [TOPO INFO] lwnoc_topo.topo_core:   Created wrapper IO 'dspss3_tniu_sys_apb_porting_sys_apb_m_penable' for interface 'dspss3_tniu.sys_apb_porting'
2026-04-25 05:25:40 [TOPO INFO] lwnoc_topo.topo_core:   Created wrapper IO 'dspss3_tniu_sys_apb_porting_sys_apb_m_pprot' for interface 'dspss3_tniu.sys_apb_porting'
2026-04-25 05:25:40 [TOPO INFO] lwnoc_topo.topo_core:   Created wrapper IO 'dspss3_tniu_sys_apb_porting_sys_apb_m_prdata' for interface 'dspss3_tniu.sys_apb_porting'
2026-04-25 05:25:40 [TOPO INFO] lwnoc_topo.topo_core:   Created wrapper IO 'dspss3_tniu_sys_apb_porting_sys_apb_m_pready' for interface 'dspss3_tniu.sys_apb_porting'
2026-04-25 05:25:40 [TOPO INFO] lwnoc_topo.topo_core:   Created wrapper IO 'dspss3_tniu_sys_apb_porting_sys_apb_m_psel' for interface 'dspss3_tniu.sys_apb_porting'
2026-04-25 05:25:40 [TOPO INFO] lwnoc_topo.topo_core:   Created wrapper IO 'dspss3_tniu_sys_apb_porting_sys_apb_m_pslverr' for interface 'dspss3_tniu.sys_apb_porting'
2026-04-25 05:25:40 [TOPO INFO] lwnoc_topo.topo_core:   Created wrapper IO 'dspss3_tniu_sys_apb_porting_sys_apb_m_pstrb' for interface 'dspss3_tniu.sys_apb_porting'
2026-04-25 05:25:40 [TOPO INFO] lwnoc_topo.topo_core:   Created wrapper IO 'dspss3_tniu_sys_apb_porting_sys_apb_m_pwdata' for interface 'dspss3_tniu.sys_apb_porting'
2026-04-25 05:25:40 [TOPO INFO] lwnoc_topo.topo_core:   Created wrapper IO 'dspss3_tniu_sys_apb_porting_sys_apb_m_pwrite' for interface 'dspss3_tniu.sys_apb_porting'
2026-04-25 05:25:40 [TOPO INFO] lwnoc_topo.topo_core:   Created wrapper IO 'dspss3_tniu_dbg_data_porting_dbg_data_dbg_data_in' for interface 'dspss3_tniu.dbg_data_porting'
2026-04-25 05:25:40 [TOPO INFO] lwnoc_topo.topo_core:   Created wrapper IO 'dspss3_tniu_dbg_data_porting_dbg_data_dbg_data_out' for interface 'dspss3_tniu.dbg_data_porting'
2026-04-25 05:25:40 [TOPO INFO] lwnoc_topo.topo_core:   Created wrapper IO 'dspss3_tniu_dbg_timestamp_porting_dbg_timestamp_dbg_timestamp_in' for interface 'dspss3_tniu.dbg_timestamp_porting'
2026-04-25 05:25:40 [TOPO INFO] lwnoc_topo.topo_core:   Created wrapper IO 'dspss3_tniu_dbg_timestamp_porting_dbg_timestamp_dbg_timestamp_out' for interface 'dspss3_tniu.dbg_timestamp_porting'
2026-04-25 05:25:40 [TOPO INFO] lwnoc_topo.topo_core:   Created wrapper IO 'dspss3_tniu_sys_cti_event_porting_sys_cti_event_sys_cti_event_in' for interface 'dspss3_tniu.sys_cti_event_porting'
2026-04-25 05:25:40 [TOPO INFO] lwnoc_topo.topo_core:   Created wrapper IO 'dspss3_tniu_sys_cti_event_porting_sys_cti_event_sys_cti_event_out' for interface 'dspss3_tniu.sys_cti_event_porting'
2026-04-25 05:25:40 [TOPO INFO] lwnoc_topo.topo_core:   Created wrapper IO 'dspss3_tniu_noc_cti_event_porting_noc_cti_event_noc_cti_event_in' for interface 'dspss3_tniu.noc_cti_event_porting'
2026-04-25 05:25:40 [TOPO INFO] lwnoc_topo.topo_core:   Created wrapper IO 'dspss3_tniu_noc_cti_event_porting_noc_cti_event_noc_cti_event_out' for interface 'dspss3_tniu.noc_cti_event_porting'
2026-04-25 05:25:40 [TOPO INFO] lwnoc_topo.topo_core:   Created wrapper IO 'dspss3_tniu_sys_cti_channel_porting_sys_cti_channel_sys_cti_channel_in' for interface 'dspss3_tniu.sys_cti_channel_porting'
2026-04-25 05:25:40 [TOPO INFO] lwnoc_topo.topo_core:   Created wrapper IO 'dspss3_tniu_sys_cti_channel_porting_sys_cti_channel_sys_cti_channel_out' for interface 'dspss3_tniu.sys_cti_channel_porting'
2026-04-25 05:25:40 [TOPO INFO] lwnoc_topo.topo_core:   Created wrapper IO 'dspss3_tniu_noc_cti_channel_porting_noc_cti_channel_noc_cti_channel_in' for interface 'dspss3_tniu.noc_cti_channel_porting'
2026-04-25 05:25:40 [TOPO INFO] lwnoc_topo.topo_core:   Created wrapper IO 'dspss3_tniu_noc_cti_channel_porting_noc_cti_channel_noc_cti_channel_out' for interface 'dspss3_tniu.noc_cti_channel_porting'
2026-04-25 05:25:40 [TOPO INFO] lwnoc_topo.topo_core:   Created wrapper IO 'dspss4_tniu_pmc_apb_porting_pmc_apb_pmc_paddr' for interface 'dspss4_tniu.pmc_apb_porting'
2026-04-25 05:25:40 [TOPO INFO] lwnoc_topo.topo_core:   Created wrapper IO 'dspss4_tniu_pmc_apb_porting_pmc_apb_pmc_penable' for interface 'dspss4_tniu.pmc_apb_porting'
2026-04-25 05:25:40 [TOPO INFO] lwnoc_topo.topo_core:   Created wrapper IO 'dspss4_tniu_pmc_apb_porting_pmc_apb_pmc_pprot' for interface 'dspss4_tniu.pmc_apb_porting'
2026-04-25 05:25:40 [TOPO INFO] lwnoc_topo.topo_core:   Created wrapper IO 'dspss4_tniu_pmc_apb_porting_pmc_apb_pmc_prdata' for interface 'dspss4_tniu.pmc_apb_porting'
2026-04-25 05:25:40 [TOPO INFO] lwnoc_topo.topo_core:   Created wrapper IO 'dspss4_tniu_pmc_apb_porting_pmc_apb_pmc_pready' for interface 'dspss4_tniu.pmc_apb_porting'
2026-04-25 05:25:40 [TOPO INFO] lwnoc_topo.topo_core:   Created wrapper IO 'dspss4_tniu_pmc_apb_porting_pmc_apb_pmc_psel' for interface 'dspss4_tniu.pmc_apb_porting'
2026-04-25 05:25:40 [TOPO INFO] lwnoc_topo.topo_core:   Created wrapper IO 'dspss4_tniu_pmc_apb_porting_pmc_apb_pmc_pslverr' for interface 'dspss4_tniu.pmc_apb_porting'
2026-04-25 05:25:40 [TOPO INFO] lwnoc_topo.topo_core:   Created wrapper IO 'dspss4_tniu_pmc_apb_porting_pmc_apb_pmc_pstrb' for interface 'dspss4_tniu.pmc_apb_porting'
2026-04-25 05:25:40 [TOPO INFO] lwnoc_topo.topo_core:   Created wrapper IO 'dspss4_tniu_pmc_apb_porting_pmc_apb_pmc_pwdata' for interface 'dspss4_tniu.pmc_apb_porting'
2026-04-25 05:25:40 [TOPO INFO] lwnoc_topo.topo_core:   Created wrapper IO 'dspss4_tniu_pmc_apb_porting_pmc_apb_pmc_pwrite' for interface 'dspss4_tniu.pmc_apb_porting'
2026-04-25 05:25:40 [TOPO INFO] lwnoc_topo.topo_core:   Created wrapper IO 'dspss4_tniu_sys_apb_porting_sys_apb_m_paddr' for interface 'dspss4_tniu.sys_apb_porting'
2026-04-25 05:25:40 [TOPO INFO] lwnoc_topo.topo_core:   Created wrapper IO 'dspss4_tniu_sys_apb_porting_sys_apb_m_penable' for interface 'dspss4_tniu.sys_apb_porting'
2026-04-25 05:25:40 [TOPO INFO] lwnoc_topo.topo_core:   Created wrapper IO 'dspss4_tniu_sys_apb_porting_sys_apb_m_pprot' for interface 'dspss4_tniu.sys_apb_porting'
2026-04-25 05:25:40 [TOPO INFO] lwnoc_topo.topo_core:   Created wrapper IO 'dspss4_tniu_sys_apb_porting_sys_apb_m_prdata' for interface 'dspss4_tniu.sys_apb_porting'
2026-04-25 05:25:40 [TOPO INFO] lwnoc_topo.topo_core:   Created wrapper IO 'dspss4_tniu_sys_apb_porting_sys_apb_m_pready' for interface 'dspss4_tniu.sys_apb_porting'
2026-04-25 05:25:40 [TOPO INFO] lwnoc_topo.topo_core:   Created wrapper IO 'dspss4_tniu_sys_apb_porting_sys_apb_m_psel' for interface 'dspss4_tniu.sys_apb_porting'
2026-04-25 05:25:40 [TOPO INFO] lwnoc_topo.topo_core:   Created wrapper IO 'dspss4_tniu_sys_apb_porting_sys_apb_m_pslverr' for interface 'dspss4_tniu.sys_apb_porting'
2026-04-25 05:25:40 [TOPO INFO] lwnoc_topo.topo_core:   Created wrapper IO 'dspss4_tniu_sys_apb_porting_sys_apb_m_pstrb' for interface 'dspss4_tniu.sys_apb_porting'
2026-04-25 05:25:40 [TOPO INFO] lwnoc_topo.topo_core:   Created wrapper IO 'dspss4_tniu_sys_apb_porting_sys_apb_m_pwdata' for interface 'dspss4_tniu.sys_apb_porting'
2026-04-25 05:25:40 [TOPO INFO] lwnoc_topo.topo_core:   Created wrapper IO 'dspss4_tniu_sys_apb_porting_sys_apb_m_pwrite' for interface 'dspss4_tniu.sys_apb_porting'
2026-04-25 05:25:40 [TOPO INFO] lwnoc_topo.topo_core:   Created wrapper IO 'dspss4_tniu_dbg_data_porting_dbg_data_dbg_data_in' for interface 'dspss4_tniu.dbg_data_porting'
2026-04-25 05:25:40 [TOPO INFO] lwnoc_topo.topo_core:   Created wrapper IO 'dspss4_tniu_dbg_data_porting_dbg_data_dbg_data_out' for interface 'dspss4_tniu.dbg_data_porting'
2026-04-25 05:25:40 [TOPO INFO] lwnoc_topo.topo_core:   Created wrapper IO 'dspss4_tniu_dbg_timestamp_porting_dbg_timestamp_dbg_timestamp_in' for interface 'dspss4_tniu.dbg_timestamp_porting'
2026-04-25 05:25:40 [TOPO INFO] lwnoc_topo.topo_core:   Created wrapper IO 'dspss4_tniu_dbg_timestamp_porting_dbg_timestamp_dbg_timestamp_out' for interface 'dspss4_tniu.dbg_timestamp_porting'
2026-04-25 05:25:40 [TOPO INFO] lwnoc_topo.topo_core:   Created wrapper IO 'dspss4_tniu_sys_cti_event_porting_sys_cti_event_sys_cti_event_in' for interface 'dspss4_tniu.sys_cti_event_porting'
2026-04-25 05:25:40 [TOPO INFO] lwnoc_topo.topo_core:   Created wrapper IO 'dspss4_tniu_sys_cti_event_porting_sys_cti_event_sys_cti_event_out' for interface 'dspss4_tniu.sys_cti_event_porting'
2026-04-25 05:25:40 [TOPO INFO] lwnoc_topo.topo_core:   Created wrapper IO 'dspss4_tniu_noc_cti_event_porting_noc_cti_event_noc_cti_event_in' for interface 'dspss4_tniu.noc_cti_event_porting'
2026-04-25 05:25:40 [TOPO INFO] lwnoc_topo.topo_core:   Created wrapper IO 'dspss4_tniu_noc_cti_event_porting_noc_cti_event_noc_cti_event_out' for interface 'dspss4_tniu.noc_cti_event_porting'
2026-04-25 05:25:40 [TOPO INFO] lwnoc_topo.topo_core:   Created wrapper IO 'dspss4_tniu_sys_cti_channel_porting_sys_cti_channel_sys_cti_channel_in' for interface 'dspss4_tniu.sys_cti_channel_porting'
2026-04-25 05:25:40 [TOPO INFO] lwnoc_topo.topo_core:   Created wrapper IO 'dspss4_tniu_sys_cti_channel_porting_sys_cti_channel_sys_cti_channel_out' for interface 'dspss4_tniu.sys_cti_channel_porting'
2026-04-25 05:25:40 [TOPO INFO] lwnoc_topo.topo_core:   Created wrapper IO 'dspss4_tniu_noc_cti_channel_porting_noc_cti_channel_noc_cti_channel_in' for interface 'dspss4_tniu.noc_cti_channel_porting'
2026-04-25 05:25:40 [TOPO INFO] lwnoc_topo.topo_core:   Created wrapper IO 'dspss4_tniu_noc_cti_channel_porting_noc_cti_channel_noc_cti_channel_out' for interface 'dspss4_tniu.noc_cti_channel_porting'
2026-04-25 05:25:40 [TOPO INFO] lwnoc_topo.topo_core:   Created wrapper IO 'dspss5_tniu_pmc_apb_porting_pmc_apb_pmc_paddr' for interface 'dspss5_tniu.pmc_apb_porting'
2026-04-25 05:25:40 [TOPO INFO] lwnoc_topo.topo_core:   Created wrapper IO 'dspss5_tniu_pmc_apb_porting_pmc_apb_pmc_penable' for interface 'dspss5_tniu.pmc_apb_porting'
2026-04-25 05:25:40 [TOPO INFO] lwnoc_topo.topo_core:   Created wrapper IO 'dspss5_tniu_pmc_apb_porting_pmc_apb_pmc_pprot' for interface 'dspss5_tniu.pmc_apb_porting'
2026-04-25 05:25:40 [TOPO INFO] lwnoc_topo.topo_core:   Created wrapper IO 'dspss5_tniu_pmc_apb_porting_pmc_apb_pmc_prdata' for interface 'dspss5_tniu.pmc_apb_porting'
2026-04-25 05:25:40 [TOPO INFO] lwnoc_topo.topo_core:   Created wrapper IO 'dspss5_tniu_pmc_apb_porting_pmc_apb_pmc_pready' for interface 'dspss5_tniu.pmc_apb_porting'
2026-04-25 05:25:40 [TOPO INFO] lwnoc_topo.topo_core:   Created wrapper IO 'dspss5_tniu_pmc_apb_porting_pmc_apb_pmc_psel' for interface 'dspss5_tniu.pmc_apb_porting'
2026-04-25 05:25:40 [TOPO INFO] lwnoc_topo.topo_core:   Created wrapper IO 'dspss5_tniu_pmc_apb_porting_pmc_apb_pmc_pslverr' for interface 'dspss5_tniu.pmc_apb_porting'
2026-04-25 05:25:40 [TOPO INFO] lwnoc_topo.topo_core:   Created wrapper IO 'dspss5_tniu_pmc_apb_porting_pmc_apb_pmc_pstrb' for interface 'dspss5_tniu.pmc_apb_porting'
2026-04-25 05:25:40 [TOPO INFO] lwnoc_topo.topo_core:   Created wrapper IO 'dspss5_tniu_pmc_apb_porting_pmc_apb_pmc_pwdata' for interface 'dspss5_tniu.pmc_apb_porting'
2026-04-25 05:25:40 [TOPO INFO] lwnoc_topo.topo_core:   Created wrapper IO 'dspss5_tniu_pmc_apb_porting_pmc_apb_pmc_pwrite' for interface 'dspss5_tniu.pmc_apb_porting'
2026-04-25 05:25:40 [TOPO INFO] lwnoc_topo.topo_core:   Created wrapper IO 'dspss5_tniu_sys_apb_porting_sys_apb_m_paddr' for interface 'dspss5_tniu.sys_apb_porting'
2026-04-25 05:25:40 [TOPO INFO] lwnoc_topo.topo_core:   Created wrapper IO 'dspss5_tniu_sys_apb_porting_sys_apb_m_penable' for interface 'dspss5_tniu.sys_apb_porting'
2026-04-25 05:25:40 [TOPO INFO] lwnoc_topo.topo_core:   Created wrapper IO 'dspss5_tniu_sys_apb_porting_sys_apb_m_pprot' for interface 'dspss5_tniu.sys_apb_porting'
2026-04-25 05:25:40 [TOPO INFO] lwnoc_topo.topo_core:   Created wrapper IO 'dspss5_tniu_sys_apb_porting_sys_apb_m_prdata' for interface 'dspss5_tniu.sys_apb_porting'
2026-04-25 05:25:40 [TOPO INFO] lwnoc_topo.topo_core:   Created wrapper IO 'dspss5_tniu_sys_apb_porting_sys_apb_m_pready' for interface 'dspss5_tniu.sys_apb_porting'
2026-04-25 05:25:40 [TOPO INFO] lwnoc_topo.topo_core:   Created wrapper IO 'dspss5_tniu_sys_apb_porting_sys_apb_m_psel' for interface 'dspss5_tniu.sys_apb_porting'
2026-04-25 05:25:40 [TOPO INFO] lwnoc_topo.topo_core:   Created wrapper IO 'dspss5_tniu_sys_apb_porting_sys_apb_m_pslverr' for interface 'dspss5_tniu.sys_apb_porting'
2026-04-25 05:25:40 [TOPO INFO] lwnoc_topo.topo_core:   Created wrapper IO 'dspss5_tniu_sys_apb_porting_sys_apb_m_pstrb' for interface 'dspss5_tniu.sys_apb_porting'
2026-04-25 05:25:40 [TOPO INFO] lwnoc_topo.topo_core:   Created wrapper IO 'dspss5_tniu_sys_apb_porting_sys_apb_m_pwdata' for interface 'dspss5_tniu.sys_apb_porting'
2026-04-25 05:25:40 [TOPO INFO] lwnoc_topo.topo_core:   Created wrapper IO 'dspss5_tniu_sys_apb_porting_sys_apb_m_pwrite' for interface 'dspss5_tniu.sys_apb_porting'
2026-04-25 05:25:40 [TOPO INFO] lwnoc_topo.topo_core:   Created wrapper IO 'dspss5_tniu_dbg_data_porting_dbg_data_dbg_data_in' for interface 'dspss5_tniu.dbg_data_porting'
2026-04-25 05:25:40 [TOPO INFO] lwnoc_topo.topo_core:   Created wrapper IO 'dspss5_tniu_dbg_data_porting_dbg_data_dbg_data_out' for interface 'dspss5_tniu.dbg_data_porting'
2026-04-25 05:25:40 [TOPO INFO] lwnoc_topo.topo_core:   Created wrapper IO 'dspss5_tniu_dbg_timestamp_porting_dbg_timestamp_dbg_timestamp_in' for interface 'dspss5_tniu.dbg_timestamp_porting'
2026-04-25 05:25:40 [TOPO INFO] lwnoc_topo.topo_core:   Created wrapper IO 'dspss5_tniu_dbg_timestamp_porting_dbg_timestamp_dbg_timestamp_out' for interface 'dspss5_tniu.dbg_timestamp_porting'
2026-04-25 05:25:40 [TOPO INFO] lwnoc_topo.topo_core:   Created wrapper IO 'dspss5_tniu_sys_cti_event_porting_sys_cti_event_sys_cti_event_in' for interface 'dspss5_tniu.sys_cti_event_porting'
2026-04-25 05:25:40 [TOPO INFO] lwnoc_topo.topo_core:   Created wrapper IO 'dspss5_tniu_sys_cti_event_porting_sys_cti_event_sys_cti_event_out' for interface 'dspss5_tniu.sys_cti_event_porting'
2026-04-25 05:25:40 [TOPO INFO] lwnoc_topo.topo_core:   Created wrapper IO 'dspss5_tniu_noc_cti_event_porting_noc_cti_event_noc_cti_event_in' for interface 'dspss5_tniu.noc_cti_event_porting'
2026-04-25 05:25:40 [TOPO INFO] lwnoc_topo.topo_core:   Created wrapper IO 'dspss5_tniu_noc_cti_event_porting_noc_cti_event_noc_cti_event_out' for interface 'dspss5_tniu.noc_cti_event_porting'
2026-04-25 05:25:40 [TOPO INFO] lwnoc_topo.topo_core:   Created wrapper IO 'dspss5_tniu_sys_cti_channel_porting_sys_cti_channel_sys_cti_channel_in' for interface 'dspss5_tniu.sys_cti_channel_porting'
2026-04-25 05:25:40 [TOPO INFO] lwnoc_topo.topo_core:   Created wrapper IO 'dspss5_tniu_sys_cti_channel_porting_sys_cti_channel_sys_cti_channel_out' for interface 'dspss5_tniu.sys_cti_channel_porting'
2026-04-25 05:25:40 [TOPO INFO] lwnoc_topo.topo_core:   Created wrapper IO 'dspss5_tniu_noc_cti_channel_porting_noc_cti_channel_noc_cti_channel_in' for interface 'dspss5_tniu.noc_cti_channel_porting'
2026-04-25 05:25:40 [TOPO INFO] lwnoc_topo.topo_core:   Created wrapper IO 'dspss5_tniu_noc_cti_channel_porting_noc_cti_channel_noc_cti_channel_out' for interface 'dspss5_tniu.noc_cti_channel_porting'
2026-04-25 05:25:40 [TOPO INFO] lwnoc_topo.topo_core:   Processing internal edge 'aon_ss_iniu_dec0_req_mst_req_182' between subnodes
2026-04-25 05:25:40 [TOPO INFO] lwnoc_topo.topo_core:     Analyzing edge 'aon_ss_iniu_dec0_req_mst_req_182' with 2 valid endpoints
2026-04-25 05:25:40 [TOPO INFO] lwnoc_topo.topo_core:       Endpoint dec0.mst_req: IO=mst_req_pld, type=Input
2026-04-25 05:25:40 [TOPO INFO] lwnoc_topo.topo_core:       Endpoint aon_ss_iniu.req: IO=out_req_pld, type=Output
2026-04-25 05:25:40 [TOPO INFO] lwnoc_topo.topo_core:     Found 1 drivers, 1 receivers
2026-04-25 05:25:40 [TOPO ERROR] lwnoc_topo.topo_core.node.uhdlWrapperNode: 
2026-04-25 05:25:40 [TOPO ERROR] lwnoc_topo.topo_core.node.uhdlWrapperNode: ================================================================================
2026-04-25 05:25:40 [TOPO ERROR] lwnoc_topo.topo_core.node.uhdlWrapperNode: [SmartAssign ERROR] Connection failed in wrapper 'soc_sts_noc'
2026-04-25 05:25:40 [TOPO ERROR] lwnoc_topo.topo_core.node.uhdlWrapperNode: Connection type: fanout
2026-04-25 05:25:40 [TOPO ERROR] lwnoc_topo.topo_core.node.uhdlWrapperNode: Edge ID: aon_ss_iniu_dec0_req_mst_req_182
2026-04-25 05:25:40 [TOPO ERROR] lwnoc_topo.topo_core.node.uhdlWrapperNode: ----------------------------------------
2026-04-25 05:25:40 [TOPO ERROR] lwnoc_topo.topo_core.node.uhdlWrapperNode: IO1:
2026-04-25 05:25:40 [TOPO ERROR] lwnoc_topo.topo_core.node.uhdlWrapperNode:   Node name:     aon_ss_iniu
2026-04-25 05:25:40 [TOPO ERROR] lwnoc_topo.topo_core.node.uhdlWrapperNode:   Interface ID:  req
2026-04-25 05:25:40 [TOPO ERROR] lwnoc_topo.topo_core.node.uhdlWrapperNode:   IO name:       out_req_pld
2026-04-25 05:25:40 [TOPO ERROR] lwnoc_topo.topo_core.node.uhdlWrapperNode:   IO object:     aon_ss_iniu_out_req_pld - Output(UInt(0,0))
2026-04-25 05:25:40 [TOPO ERROR] lwnoc_topo.topo_core.node.uhdlWrapperNode:   IO type:       Output
2026-04-25 05:25:40 [TOPO ERROR] lwnoc_topo.topo_core.node.uhdlWrapperNode:   IO father:     _aon_ss_iniu <uhdl.uhdl.core.TemplateIP.TemplateComponent object at 0x7f3127938f40>
2026-04-25 05:25:40 [TOPO ERROR] lwnoc_topo.topo_core.node.uhdlWrapperNode:   IO list:       [out_req_pld, out_req_rdy, out_req_vld]
2026-04-25 05:25:40 [TOPO ERROR] lwnoc_topo.topo_core.node.uhdlWrapperNode: ----------------------------------------
2026-04-25 05:25:40 [TOPO ERROR] lwnoc_topo.topo_core.node.uhdlWrapperNode: IO2:
2026-04-25 05:25:40 [TOPO ERROR] lwnoc_topo.topo_core.node.uhdlWrapperNode:   Node name:     dec0
2026-04-25 05:25:40 [TOPO ERROR] lwnoc_topo.topo_core.node.uhdlWrapperNode:   Interface ID:  mst_req
2026-04-25 05:25:40 [TOPO ERROR] lwnoc_topo.topo_core.node.uhdlWrapperNode:   IO name:       mst_req_pld
2026-04-25 05:25:40 [TOPO ERROR] lwnoc_topo.topo_core.node.uhdlWrapperNode:   IO object:     dec0_mst_req_pld - Input(UInt(119,0))
2026-04-25 05:25:40 [TOPO ERROR] lwnoc_topo.topo_core.node.uhdlWrapperNode:   IO type:       Input
2026-04-25 05:25:40 [TOPO ERROR] lwnoc_topo.topo_core.node.uhdlWrapperNode:   IO father:     _dec0 <uhdl.uhdl.core.TemplateIP.TemplateComponent object at 0x7f312797d210>
2026-04-25 05:25:40 [TOPO ERROR] lwnoc_topo.topo_core.node.uhdlWrapperNode:   IO list:       [mst_req_pld, mst_req_rdy, mst_req_vld]
2026-04-25 05:25:40 [TOPO ERROR] lwnoc_topo.topo_core.node.uhdlWrapperNode: ================================================================================
2026-04-25 05:25:40 [TOPO ERROR] lwnoc_topo.topo_core.node.uhdlWrapperNode: Original error: Input is expected to be connected by a Rvalue with same attribute,but the current attribute does not match: TOP.dec0.mst_req_pld, TOP.aon_ss_iniu.out_req_pld
Attribute Mismatch:
	dec0_mst_req_pld - Input(UInt(119,0))
	aon_ss_iniu_out_req_pld - Output(UInt(0,0))
2026-04-25 05:25:40 [TOPO ERROR] lwnoc_topo.topo_core.node.uhdlWrapperNode: ================================================================================
